#, Frequency (Hz), Amplitude (Vpp), Gain (dB), Phase (°)
1,100.0,0.0500,-63.99,-3.48
2,101.2,0.0500,-65.15,-2.38
3,102.3,0.0500,-64.87,5.46
4,103.5,0.0500,-63.83,-1.56
5,104.7,0.0500,-64.89,3.95
6,105.9,0.0500,-64.63,1.22
7,107.2,0.0500,-64.87,-0.78
8,108.4,0.0500,-66.43,2.23
9,109.6,0.0500,-65.00,-0.89
10,110.9,0.0500,-64.95,2.36
11,112.2,0.0500,-65.07,4.37
12,113.5,0.0500,-64.49,4.29
13,114.8,0.0500,-65.76,6.71
14,116.1,0.0500,-65.11,-2.60
15,117.5,0.0500,-65.75,3.77
16,118.9,0.0500,-65.08,-9.02
17,120.2,0.0500,-64.66,3.07
18,121.6,0.0500,-65.59,3.08
19,123.0,0.0500,-64.43,8.09
20,124.5,0.0500,-64.00,6.99
21,125.9,0.0500,-65.46,-1.01
22,127.4,0.0500,-66.21,-1.12
23,128.8,0.0500,-64.57,1.66
24,130.3,0.0500,-64.78,5.07
25,131.8,0.0500,-66.41,3.77
26,133.4,0.0500,-65.54,1.33
27,134.9,0.0500,-65.76,-6.88
28,136.5,0.0500,-66.24,9.98
29,138.0,0.0500,-65.60,-5.91
30,139.6,0.0500,-65.54,6.74
31,141.3,0.0500,-65.57,0.86
32,142.9,0.0500,-66.48,7.56
33,144.5,0.0500,-64.13,-12.50
34,146.2,0.0500,-66.47,-0.72
35,147.9,0.0500,-66.28,10.40
36,149.6,0.0500,-65.73,7.19
37,151.4,0.0500,-65.91,2.79
38,153.1,0.0500,-66.89,-5.05
39,154.9,0.0500,-64.82,1.07
40,156.7,0.0500,-65.27,4.33
41,158.5,0.0500,-64.59,5.60
42,160.3,0.0500,-64.83,0.97
43,162.2,0.0500,-64.74,2.75
44,164.1,0.0500,-65.63,5.54
45,166.0,0.0500,-65.88,8.89
46,167.9,0.0500,-64.36,-5.37
47,169.8,0.0500,-65.59,5.66
48,171.8,0.0500,-65.37,-2.41
49,173.8,0.0500,-66.28,9.83
50,175.8,0.0500,-65.11,-0.09
51,177.8,0.0500,-65.46,-0.26
52,179.9,0.0500,-65.69,5.05
53,182.0,0.0500,-65.45,7.32
54,184.1,0.0500,-64.85,4.64
55,186.2,0.0500,-65.53,-0.04
56,188.4,0.0500,-65.82,-2.04
57,190.5,0.0500,-65.27,7.61
58,192.8,0.0500,-66.08,1.26
59,195.0,0.0500,-65.30,1.36
60,197.2,0.0500,-64.64,9.60
61,199.5,0.0500,-66.19,-1.23
62,201.8,0.0500,-65.12,3.30
63,204.2,0.0500,-66.15,3.19
64,206.5,0.0500,-65.26,1.69
65,208.9,0.0500,-66.25,-3.53
66,211.3,0.0500,-64.84,-5.47
67,213.8,0.0500,-65.10,6.68
68,216.3,0.0500,-65.35,4.92
69,218.8,0.0500,-65.43,1.20
70,221.3,0.0500,-65.82,4.15
71,223.9,0.0500,-64.35,10.97
72,226.5,0.0500,-64.90,5.85
73,229.1,0.0500,-66.02,3.29
74,231.7,0.0500,-65.64,-6.81
75,234.4,0.0500,-65.95,8.20
76,237.1,0.0500,-66.39,3.03
77,239.9,0.0500,-64.82,5.64
78,242.7,0.0500,-65.31,8.05
79,245.5,0.0500,-66.49,9.91
80,248.3,0.0500,-64.42,7.61
81,251.2,0.0500,-65.47,6.93
82,254.1,0.0500,-65.21,3.17
83,257.0,0.0500,-65.16,9.38
84,260.0,0.0500,-65.87,12.46
85,263.0,0.0500,-65.49,-3.65
86,266.1,0.0500,-65.44,10.36
87,269.2,0.0500,-66.19,0.33
88,272.3,0.0500,-65.78,4.39
89,275.4,0.0500,-64.55,4.88
90,278.6,0.0500,-65.49,5.83
91,281.8,0.0500,-66.99,4.44
92,285.1,0.0500,-64.71,-0.14
93,288.4,0.0500,-65.05,6.26
94,291.7,0.0500,-65.23,2.89
95,295.1,0.0500,-65.61,4.00
96,298.5,0.0500,-65.04,1.89
97,302.0,0.0500,-65.74,5.81
98,305.5,0.0500,-64.05,6.94
99,309.0,0.0500,-64.46,7.73
100,312.6,0.0500,-65.88,6.97
101,316.2,0.0500,-65.30,11.09
102,319.9,0.0500,-66.05,3.48
103,323.6,0.0500,-64.88,9.29
104,327.3,0.0500,-64.73,6.60
105,331.1,0.0500,-65.37,8.70
106,335.0,0.0500,-65.17,3.61
107,338.8,0.0500,-64.30,9.33
108,342.8,0.0500,-66.03,6.54
109,346.7,0.0500,-65.08,13.83
110,350.8,0.0500,-65.17,8.15
111,354.8,0.0500,-64.98,3.42
112,358.9,0.0500,-65.37,1.46
113,363.1,0.0500,-64.46,11.75
114,367.3,0.0500,-64.72,4.13
115,371.5,0.0500,-65.30,7.20
116,375.8,0.0500,-65.19,6.70
117,380.2,0.0500,-65.84,11.89
118,384.6,0.0500,-65.79,11.67
119,389.0,0.0500,-65.05,8.11
120,393.6,0.0500,-65.22,1.97
121,398.1,0.0500,-64.86,8.01
122,402.7,0.0500,-65.18,13.15
123,407.4,0.0500,-64.62,8.30
124,412.1,0.0500,-64.96,7.09
125,416.9,0.0500,-65.14,2.78
126,421.7,0.0500,-64.89,10.17
127,426.6,0.0500,-65.13,8.34
128,431.5,0.0500,-64.85,5.50
129,436.5,0.0500,-64.61,12.91
130,441.6,0.0500,-64.59,7.43
131,446.7,0.0500,-65.04,3.50
132,451.9,0.0500,-64.77,11.12
133,457.1,0.0500,-64.72,7.32
134,462.4,0.0500,-65.04,9.50
135,467.7,0.0500,-65.66,9.67
136,473.2,0.0500,-65.52,13.20
137,478.6,0.0500,-65.42,8.95
138,484.2,0.0500,-65.11,4.68
139,489.8,0.0500,-65.11,4.69
140,495.5,0.0500,-65.00,6.25
141,501.2,0.0500,-65.08,9.67
142,507.0,0.0500,-65.65,7.38
143,512.9,0.0500,-65.12,13.53
144,518.8,0.0500,-65.15,8.36
145,524.8,0.0500,-64.70,11.11
146,530.9,0.0500,-64.99,6.09
147,537.0,0.0500,-65.37,8.41
148,543.3,0.0500,-66.50,12.76
149,549.5,0.0500,-65.22,12.49
150,555.9,0.0500,-65.24,9.26
151,562.3,0.0500,-64.87,12.53
152,568.9,0.0500,-64.20,9.65
153,575.4,0.0500,-64.95,8.95
154,582.1,0.0500,-65.28,8.53
155,588.8,0.0500,-65.24,9.98
156,595.7,0.0500,-65.04,11.70
157,602.6,0.0500,-65.46,14.08
158,609.5,0.0500,-65.01,6.89
159,616.6,0.0500,-64.89,7.88
160,623.7,0.0500,-65.03,14.52
161,631.0,0.0500,-65.62,14.47
162,638.3,0.0500,-65.08,7.62
163,645.7,0.0500,-64.95,12.38
164,653.1,0.0500,-66.03,14.34
165,660.7,0.0500,-64.79,13.95
166,668.3,0.0500,-64.83,16.24
167,676.1,0.0500,-65.30,6.72
168,683.9,0.0500,-65.11,9.93
169,691.8,0.0500,-65.35,10.56
170,699.8,0.0500,-64.81,12.61
171,707.9,0.0500,-64.98,10.36
172,716.1,0.0500,-65.29,16.03
173,724.4,0.0500,-64.01,10.06
174,732.8,0.0500,-64.17,18.57
175,741.3,0.0500,-65.11,11.55
176,749.9,0.0500,-64.97,15.38
177,758.6,0.0500,-65.09,10.96
178,767.4,0.0500,-64.97,9.75
179,776.2,0.0500,-64.47,11.10
180,785.2,0.0500,-65.38,14.97
181,794.3,0.0500,-65.09,15.31
182,803.5,0.0500,-65.17,11.85
183,812.8,0.0500,-64.99,14.18
184,822.2,0.0500,-64.53,9.65
185,831.8,0.0500,-64.71,18.16
186,841.4,0.0500,-64.46,11.07
187,851.1,0.0500,-64.55,15.14
188,861.0,0.0500,-65.06,15.48
189,871.0,0.0500,-64.45,14.73
190,881.0,0.0500,-64.42,11.90
191,891.3,0.0500,-65.58,14.76
192,901.6,0.0500,-64.89,12.92
193,912.0,0.0500,-64.92,16.08
194,922.6,0.0500,-65.85,19.07
195,933.3,0.0500,-63.92,11.01
196,944.1,0.0500,-64.59,15.05
197,955.0,0.0500,-64.76,17.28
198,966.1,0.0500,-64.63,18.14
199,977.2,0.0500,-64.77,17.62
200,988.6,0.0500,-65.83,12.16
201,1000.0,0.0500,-64.48,18.67
202,1011.6,0.0500,-64.66,19.78
203,1023.3,0.0500,-64.25,15.37
204,1035.1,0.0500,-64.68,16.36
205,1047.1,0.0500,-63.99,22.03
206,1059.3,0.0500,-65.69,11.34
207,1071.5,0.0500,-64.19,21.41
208,1083.9,0.0500,-64.47,19.03
209,1096.5,0.0500,-64.86,21.12
210,1109.2,0.0500,-64.05,18.87
211,1122.0,0.0500,-64.84,20.34
212,1135.0,0.0500,-65.11,29.11
213,1148.2,0.0500,-65.06,14.99
214,1161.4,0.0500,-64.28,20.45
215,1174.9,0.0500,-64.28,23.15
216,1188.5,0.0500,-65.09,21.02
217,1202.3,0.0500,-65.37,24.75
218,1216.2,0.0500,-64.25,18.15
219,1230.3,0.0500,-63.77,18.79
220,1244.5,0.0500,-64.31,24.65
221,1258.9,0.0500,-64.66,20.15
222,1273.5,0.0500,-64.52,16.66
223,1288.2,0.0500,-63.61,21.97
224,1303.2,0.0500,-64.36,22.72
225,1318.3,0.0500,-64.19,24.33
226,1333.5,0.0500,-64.19,25.98
227,1349.0,0.0500,-63.75,19.92
228,1364.6,0.0500,-64.11,13.99
229,1380.4,0.0500,-64.27,30.34
230,1396.4,0.0500,-64.53,16.78
231,1412.5,0.0500,-64.69,20.10
232,1428.9,0.0500,-64.26,23.70
233,1445.4,0.0500,-64.28,28.89
234,1462.2,0.0500,-64.81,29.14
235,1479.1,0.0500,-64.09,22.34
236,1496.2,0.0500,-64.43,27.81
237,1513.6,0.0500,-64.95,25.21
238,1531.1,0.0500,-64.92,21.83
239,1548.8,0.0500,-64.01,19.89
240,1566.8,0.0500,-63.65,30.39
241,1584.9,0.0500,-63.63,26.18
242,1603.2,0.0500,-63.44,27.57
243,1621.8,0.0500,-63.36,23.13
244,1640.6,0.0500,-63.61,31.70
245,1659.6,0.0500,-64.72,28.52
246,1678.8,0.0500,-63.64,23.71
247,1698.2,0.0500,-64.69,26.24
248,1717.9,0.0500,-63.50,26.93
249,1737.8,0.0500,-63.59,26.66
250,1757.9,0.0500,-64.49,24.09
251,1778.3,0.0500,-63.42,31.32
252,1798.9,0.0500,-63.50,27.77
253,1819.7,0.0500,-64.01,30.57
254,1840.8,0.0500,-63.97,30.22
255,1862.1,0.0500,-64.40,33.45
256,1883.6,0.0500,-64.47,34.68
257,1905.5,0.0500,-64.07,29.28
258,1927.5,0.0500,-63.84,36.46
259,1949.8,0.0500,-62.97,27.95
260,1972.4,0.0500,-63.56,34.87
261,1995.3,0.0500,-62.51,40.85
262,2018.4,0.0500,-63.35,29.56
263,2041.7,0.0500,-63.31,37.11
264,2065.4,0.0500,-63.31,30.98
265,2089.3,0.0500,-63.82,29.75
266,2113.5,0.0500,-63.03,30.28
267,2138.0,0.0500,-63.97,28.45
268,2162.7,0.0500,-63.05,31.09
269,2187.8,0.0500,-63.10,35.71
270,2213.1,0.0500,-63.09,31.79
271,2238.7,0.0500,-63.40,37.17
272,2264.6,0.0500,-63.32,34.88
273,2290.9,0.0500,-63.56,34.52
274,2317.4,0.0500,-63.59,35.47
275,2344.2,0.0500,-62.90,37.61
276,2371.4,0.0500,-64.16,31.90
277,2398.8,0.0500,-62.37,36.24
278,2426.6,0.0500,-63.44,39.41
279,2454.7,0.0500,-63.00,37.09
280,2483.1,0.0500,-63.41,31.87
281,2511.9,0.0500,-63.32,37.13
282,2541.0,0.0500,-63.51,36.93
283,2570.4,0.0500,-62.44,35.20
284,2600.2,0.0500,-63.35,40.29
285,2630.3,0.0500,-63.09,39.26
286,2660.7,0.0500,-63.01,40.77
287,2691.5,0.0500,-62.65,40.35
288,2722.7,0.0500,-62.24,39.97
289,2754.2,0.0500,-62.57,41.34
290,2786.1,0.0500,-62.32,44.70
291,2818.4,0.0500,-62.56,41.80
292,2851.0,0.0500,-62.35,40.39
293,2884.0,0.0500,-62.05,41.67
294,2917.4,0.0500,-62.33,41.54
295,2951.2,0.0500,-62.11,40.30
296,2985.4,0.0500,-62.40,44.88
297,3020.0,0.0500,-62.06,43.39
298,3054.9,0.0500,-62.66,42.99
299,3090.3,0.0500,-62.67,46.87
300,3126.1,0.0500,-61.86,38.75
301,3162.3,0.0500,-61.78,43.11
302,3198.9,0.0500,-62.53,41.01
303,3235.9,0.0500,-61.88,43.17
304,3273.4,0.0500,-62.08,39.53
305,3311.3,0.0500,-62.46,44.34
306,3349.7,0.0500,-62.48,42.23
307,3388.4,0.0500,-62.23,43.95
308,3427.7,0.0500,-61.81,53.15
309,3467.4,0.0500,-61.31,45.71
310,3507.5,0.0500,-62.26,43.40
311,3548.1,0.0500,-61.34,47.39
312,3589.2,0.0500,-60.94,49.48
313,3630.8,0.0500,-61.46,45.33
314,3672.8,0.0500,-61.84,47.48
315,3715.4,0.0500,-61.86,48.55
316,3758.4,0.0500,-60.91,49.84
317,3801.9,0.0500,-61.53,46.26
318,3845.9,0.0500,-61.67,46.03
319,3890.5,0.0500,-61.13,48.80
320,3935.5,0.0500,-60.90,49.49
321,3981.1,0.0500,-60.89,53.08
322,4027.2,0.0500,-61.56,54.48
323,4073.8,0.0500,-60.56,52.16
324,4121.0,0.0500,-61.31,51.78
325,4168.7,0.0500,-60.64,53.11
326,4217.0,0.0500,-61.63,49.07
327,4265.8,0.0500,-60.39,48.63
328,4315.2,0.0500,-60.59,50.55
329,4365.2,0.0500,-60.17,55.13
330,4415.7,0.0500,-60.35,52.45
331,4466.8,0.0500,-60.47,52.04
332,4518.6,0.0500,-60.47,50.76
333,4570.9,0.0500,-60.93,53.43
334,4623.8,0.0500,-60.52,55.72
335,4677.4,0.0500,-59.91,53.94
336,4731.5,0.0500,-60.03,55.84
337,4786.3,0.0500,-60.11,56.00
338,4841.7,0.0500,-59.79,54.62
339,4897.8,0.0500,-60.01,55.46
340,4954.5,0.0500,-60.27,56.51
341,5011.9,0.0500,-59.69,57.33
342,5069.9,0.0500,-59.97,58.01
343,5128.6,0.0500,-59.92,60.37
344,5188.0,0.0500,-59.52,55.07
345,5248.1,0.0500,-59.39,56.44
346,5308.8,0.0500,-60.01,59.98
347,5370.3,0.0500,-59.12,57.88
348,5432.5,0.0500,-59.59,57.92
349,5495.4,0.0500,-59.70,56.80
350,5559.0,0.0500,-59.43,56.82
351,5623.4,0.0500,-59.27,58.11
352,5688.5,0.0500,-58.98,60.99
353,5754.4,0.0500,-58.78,58.76
354,5821.0,0.0500,-58.39,59.43
355,5888.4,0.0500,-59.09,62.22
356,5956.6,0.0500,-58.62,59.86
357,6025.6,0.0500,-58.85,60.62
358,6095.4,0.0500,-58.58,60.32
359,6166.0,0.0500,-58.43,61.96
360,6237.3,0.0500,-58.08,62.70
361,6309.6,0.0500,-58.11,62.68
362,6382.6,0.0500,-58.24,62.20
363,6456.5,0.0500,-58.21,62.36
364,6531.3,0.0500,-58.07,62.82
365,6606.9,0.0500,-58.08,62.90
366,6683.4,0.0500,-58.05,64.93
367,6760.8,0.0500,-57.90,65.48
368,6839.1,0.0500,-57.61,66.66
369,6918.3,0.0500,-57.43,65.28
370,6998.4,0.0500,-57.33,65.13
371,7079.5,0.0500,-57.59,65.05
372,7161.4,0.0500,-57.56,64.22
373,7244.4,0.0500,-57.45,64.75
374,7328.2,0.0500,-57.11,68.45
375,7413.1,0.0500,-57.20,66.47
376,7498.9,0.0500,-57.01,65.46
377,7585.8,0.0500,-56.89,65.65
378,7673.6,0.0500,-56.96,64.63
379,7762.5,0.0500,-56.81,63.59
380,7852.4,0.0500,-56.75,65.90
381,7943.3,0.0500,-56.85,69.95
382,8035.3,0.0500,-56.54,68.37
383,8128.3,0.0500,-56.64,67.33
384,8222.4,0.0500,-56.27,66.74
385,8317.6,0.0500,-56.18,68.31
386,8414.0,0.0500,-56.32,69.82
387,8511.4,0.0500,-56.16,66.98
388,8609.9,0.0500,-55.96,68.89
389,8709.6,0.0500,-55.98,68.72
390,8810.5,0.0500,-56.29,69.43
391,8912.5,0.0500,-55.96,68.46
392,9015.7,0.0500,-55.61,68.42
393,9120.1,0.0500,-55.28,70.15
394,9225.7,0.0500,-55.34,72.39
395,9332.5,0.0500,-55.41,69.32
396,9440.6,0.0500,-55.55,71.30
397,9549.9,0.0500,-55.38,72.45
398,9660.5,0.0500,-55.12,69.06
399,9772.4,0.0500,-54.97,72.13
400,9885.5,0.0500,-55.46,71.18
401,10000.0,0.0500,-54.85,72.12
402,10115.8,0.0500,-55.09,71.21
403,10232.9,0.0500,-54.85,72.30
404,10351.4,0.0500,-54.53,71.34
405,10471.3,0.0500,-54.44,72.14
406,10592.5,0.0500,-54.60,73.47
407,10715.2,0.0500,-54.20,71.07
408,10839.3,0.0500,-54.20,72.23
409,10964.8,0.0500,-54.19,71.91
410,11091.7,0.0500,-54.06,73.96
411,11220.2,0.0500,-54.03,72.20
412,11350.1,0.0500,-54.15,73.03
413,11481.5,0.0500,-53.75,73.59
414,11614.5,0.0500,-53.86,75.19
415,11749.0,0.0500,-53.60,75.28
416,11885.0,0.0500,-53.54,73.51
417,12022.6,0.0500,-53.54,74.45
418,12161.9,0.0500,-53.53,74.09
419,12302.7,0.0500,-53.25,76.06
420,12445.1,0.0500,-53.10,74.99
421,12589.3,0.0500,-53.16,76.89
422,12735.0,0.0500,-53.07,75.45
423,12882.5,0.0500,-53.01,75.59
424,13031.7,0.0500,-52.87,74.02
425,13182.6,0.0500,-52.78,75.75
426,13335.2,0.0500,-52.51,75.90
427,13489.6,0.0500,-52.53,76.22
428,13645.8,0.0500,-52.50,76.17
429,13803.8,0.0500,-52.36,76.57
430,13963.7,0.0500,-52.33,76.73
431,14125.4,0.0500,-51.97,75.83
432,14288.9,0.0500,-52.01,76.59
433,14454.4,0.0500,-51.86,76.85
434,14621.8,0.0500,-51.81,76.88
435,14791.1,0.0500,-51.78,76.90
436,14962.4,0.0500,-51.61,77.81
437,15135.6,0.0500,-51.48,76.95
438,15310.9,0.0500,-51.57,78.52
439,15488.2,0.0500,-51.50,78.63
440,15667.5,0.0500,-51.52,77.55
441,15848.9,0.0500,-51.26,77.86
442,16032.5,0.0500,-51.07,79.41
443,16218.1,0.0500,-50.78,77.88
444,16405.9,0.0500,-50.94,78.89
445,16595.9,0.0500,-50.82,78.79
446,16788.0,0.0500,-50.54,79.00
447,16982.4,0.0500,-50.75,78.73
448,17179.1,0.0500,-50.56,78.75
449,17378.0,0.0500,-50.36,79.73
450,17579.2,0.0500,-50.40,79.09
451,17782.8,0.0500,-50.33,78.74
452,17988.7,0.0500,-49.98,78.71
453,18197.0,0.0500,-50.17,79.08
454,18407.7,0.0500,-49.85,80.25
455,18620.9,0.0500,-49.79,79.04
456,18836.5,0.0500,-49.71,79.32
457,19054.6,0.0500,-49.60,78.83
458,19275.2,0.0500,-49.50,78.58
459,19498.4,0.0500,-49.45,80.66
460,19724.2,0.0500,-49.29,80.62
461,19952.6,0.0500,-49.16,80.79
462,20183.7,0.0500,-49.21,81.09
463,20417.4,0.0500,-49.13,80.22
464,20653.8,0.0500,-48.91,79.93
465,20893.0,0.0500,-48.96,80.63
466,21134.9,0.0500,-48.74,81.03
467,21379.6,0.0500,-48.65,80.39
468,21627.2,0.0500,-48.55,80.58
469,21877.6,0.0500,-48.52,80.63
470,22130.9,0.0500,-48.39,81.19
471,22387.2,0.0500,-48.39,80.86
472,22646.4,0.0500,-48.08,80.47
473,22908.7,0.0500,-48.15,81.75
474,23173.9,0.0500,-48.08,82.35
475,23442.3,0.0500,-47.88,81.47
476,23713.7,0.0500,-47.70,81.04
477,23988.3,0.0500,-47.59,82.17
478,24266.1,0.0500,-47.55,82.74
479,24547.1,0.0500,-47.50,82.31
480,24831.3,0.0500,-47.42,81.56
481,25118.9,0.0500,-47.40,82.73
482,25409.7,0.0500,-47.03,82.55
483,25704.0,0.0500,-47.08,82.89
484,26001.6,0.0500,-46.96,82.28
485,26302.7,0.0500,-46.90,82.21
486,26607.3,0.0500,-46.80,82.32
487,26915.3,0.0500,-46.76,82.79
488,27227.0,0.0500,-46.54,82.41
489,27542.3,0.0500,-46.36,82.95
490,27861.2,0.0500,-46.45,82.02
491,28183.8,0.0500,-46.31,83.03
492,28510.2,0.0500,-46.19,82.88
493,28840.3,0.0500,-46.08,82.48
494,29174.3,0.0500,-45.85,83.11
495,29512.1,0.0500,-46.07,81.96
496,29853.8,0.0500,-45.69,83.35
497,30199.5,0.0500,-45.76,83.49
498,30549.2,0.0500,-45.68,83.25
499,30903.0,0.0500,-45.56,82.91
500,31260.8,0.0500,-45.49,84.28
501,31622.8,0.0500,-45.28,83.25
502,31989.0,0.0500,-45.18,83.74
503,32359.4,0.0500,-45.10,84.08
504,32734.1,0.0500,-44.92,84.27
505,33113.1,0.0500,-44.96,83.32
506,33496.5,0.0500,-44.85,83.65
507,33884.4,0.0500,-44.68,83.50
508,34276.8,0.0500,-44.60,83.51
509,34673.7,0.0500,-44.45,83.96
510,35075.2,0.0500,-44.39,84.38
511,35481.3,0.0500,-44.34,83.91
512,35892.2,0.0500,-44.24,83.65
513,36307.8,0.0500,-44.01,84.05
514,36728.2,0.0500,-43.87,83.68
515,37153.5,0.0500,-43.85,84.70
516,37583.7,0.0500,-43.90,84.16
517,38018.9,0.0500,-43.75,83.74
518,38459.2,0.0500,-43.57,84.53
519,38904.5,0.0500,-43.49,84.28
520,39355.0,0.0500,-43.32,83.80
521,39810.7,0.0500,-43.28,84.04
522,40271.7,0.0500,-43.22,84.83
523,40738.0,0.0500,-42.96,84.78
524,41209.8,0.0500,-42.98,85.02
525,41686.9,0.0500,-42.82,84.62
526,42169.7,0.0500,-42.90,83.98
527,42658.0,0.0500,-42.70,84.95
528,43151.9,0.0500,-42.58,84.68
529,43651.6,0.0500,-42.47,84.85
530,44157.0,0.0500,-42.36,85.50
531,44668.4,0.0500,-42.23,84.58
532,45185.6,0.0500,-42.22,86.21
533,45708.8,0.0500,-42.04,85.02
534,46238.1,0.0500,-41.97,85.50
535,46773.5,0.0500,-41.94,84.76
536,47315.1,0.0500,-41.80,83.25
537,47863.0,0.0500,-41.65,85.85
538,48417.2,0.0500,-41.35,85.56
539,48977.9,0.0500,-41.27,85.31
540,49545.0,0.0500,-41.14,87.09
541,50118.7,0.0500,-41.23,84.31
542,50699.1,0.0500,-40.86,86.01
543,51286.1,0.0500,-40.77,85.28
544,51880.0,0.0500,-40.87,84.88
545,52480.7,0.0500,-40.69,86.26
546,53088.4,0.0500,-40.48,84.99
547,53703.2,0.0500,-40.72,84.81
548,54325.0,0.0500,-40.24,84.68
549,54954.1,0.0500,-40.30,84.72
550,55590.4,0.0500,-40.05,85.80
551,56234.1,0.0500,-40.04,85.50
552,56885.3,0.0500,-40.04,84.70
553,57544.0,0.0500,-39.76,84.08
554,58210.3,0.0500,-40.01,84.47
555,58884.4,0.0500,-39.69,85.89
556,59566.2,0.0500,-39.68,86.24
557,60256.0,0.0500,-39.60,85.97
558,60953.7,0.0500,-39.46,84.39
559,61659.5,0.0500,-39.27,85.51
560,62373.5,0.0500,-39.44,85.67
561,63095.7,0.0500,-39.01,85.24
562,63826.3,0.0500,-39.27,85.73
563,64565.4,0.0500,-38.92,84.47
564,65313.1,0.0500,-38.77,85.33
565,66069.3,0.0500,-38.74,83.81
566,66834.4,0.0500,-38.54,84.73
567,67608.3,0.0500,-38.54,86.33
568,68391.2,0.0500,-38.59,86.01
569,69183.1,0.0500,-38.35,85.33
570,69984.2,0.0500,-38.29,84.07
571,70794.6,0.0500,-38.06,86.11
572,71614.3,0.0500,-38.14,85.15
573,72443.6,0.0500,-37.89,85.01
574,73282.5,0.0500,-37.87,85.07
575,74131.0,0.0500,-37.84,84.63
576,74989.4,0.0500,-37.64,85.76
577,75857.8,0.0500,-37.55,86.00
578,76736.1,0.0500,-37.48,85.32
579,77624.7,0.0500,-37.37,85.51
580,78523.6,0.0500,-37.19,85.40
581,79432.8,0.0500,-37.23,84.92
582,80352.6,0.0500,-37.06,85.14
583,81283.1,0.0500,-37.09,85.78
584,82224.3,0.0500,-36.86,85.50
585,83176.4,0.0500,-36.76,84.98
586,84139.5,0.0500,-36.65,85.03
587,85113.8,0.0500,-36.60,84.50
588,86099.4,0.0500,-36.45,85.52
589,87096.4,0.0500,-36.31,85.62
590,88104.9,0.0500,-36.29,86.01
591,89125.1,0.0500,-36.13,85.10
592,90157.1,0.0500,-36.15,85.36
593,91201.1,0.0500,-35.80,84.86
594,92257.1,0.0500,-35.72,85.40
595,93325.4,0.0500,-35.79,85.36
596,94406.1,0.0500,-35.53,85.11
597,95499.3,0.0500,-35.57,85.72
598,96605.1,0.0500,-35.35,84.82
599,97723.7,0.0500,-35.27,85.85
600,98855.3,0.0500,-35.19,85.21
601,100000.0,0.0500,-35.10,84.89
602,101157.9,0.0500,-35.10,85.56
603,102329.3,0.0500,-35.01,85.66
604,103514.2,0.0500,-34.84,85.57
605,104712.9,0.0500,-34.68,85.25
606,105925.4,0.0500,-34.51,84.70
607,107151.9,0.0500,-34.55,85.46
608,108392.7,0.0500,-34.34,85.02
609,109647.8,0.0500,-34.24,84.68
610,110917.5,0.0500,-34.19,84.97
611,112201.8,0.0500,-34.12,85.42
612,113501.1,0.0500,-34.04,85.32
613,114815.4,0.0500,-33.76,85.24
614,116144.9,0.0500,-33.80,84.90
615,117489.8,0.0500,-33.64,84.90
616,118850.2,0.0500,-33.51,85.51
617,120226.4,0.0500,-33.46,85.11
618,121618.6,0.0500,-33.32,85.44
619,123026.9,0.0500,-33.27,84.90
620,124451.5,0.0500,-33.22,85.22
621,125892.5,0.0500,-32.91,84.31
622,127350.3,0.0500,-33.01,84.77
623,128825.0,0.0500,-32.83,85.07
624,130316.7,0.0500,-32.62,84.90
625,131825.7,0.0500,-32.66,84.59
626,133352.1,0.0500,-32.52,84.70
627,134896.3,0.0500,-32.42,84.70
628,136458.3,0.0500,-32.33,84.25
629,138038.4,0.0500,-32.28,85.24
630,139636.8,0.0500,-32.23,84.81
631,141253.8,0.0500,-31.97,84.28
632,142889.4,0.0500,-31.86,85.31
633,144544.0,0.0500,-31.77,84.83
634,146217.7,0.0500,-31.64,84.66
635,147910.8,0.0500,-31.54,84.46
636,149623.6,0.0500,-31.38,84.46
637,151356.1,0.0500,-31.37,84.95
638,153108.7,0.0500,-31.15,84.53
639,154881.7,0.0500,-31.05,84.32
640,156675.1,0.0500,-31.04,84.94
641,158489.3,0.0500,-30.99,84.59
642,160324.5,0.0500,-30.82,84.53
643,162181.0,0.0500,-30.64,83.53
644,164059.0,0.0500,-30.71,84.33
645,165958.7,0.0500,-30.64,84.93
646,167880.4,0.0500,-30.56,84.35
647,169824.4,0.0500,-30.46,85.45
