#, Frequency (Hz), Amplitude (Vpp), Gain (dB), Phase (°)
1,100.0,0.0500,-61.82,0.17
2,101.2,0.0500,-64.53,4.07
3,102.3,0.0500,-63.07,-3.56
4,103.5,0.0500,-63.55,0.06
5,104.7,0.0500,-64.77,-1.33
6,105.9,0.0500,-63.40,1.26
7,107.2,0.0500,-62.94,2.25
8,108.4,0.0500,-63.32,2.26
9,109.6,0.0500,-63.76,0.68
10,110.9,0.0500,-63.95,11.07
11,112.2,0.0500,-63.15,2.68
12,113.5,0.0500,-62.55,9.77
13,114.8,0.0500,-63.01,3.04
14,116.1,0.0500,-62.60,5.06
15,117.5,0.0500,-63.64,0.95
16,118.9,0.0500,-62.80,0.76
17,120.2,0.0500,-62.68,-1.00
18,121.6,0.0500,-63.63,3.60
19,123.0,0.0500,-63.14,0.11
20,124.5,0.0500,-64.94,1.91
21,125.9,0.0500,-62.70,3.93
22,127.4,0.0500,-62.40,4.20
23,128.8,0.0500,-63.17,1.68
24,130.3,0.0500,-63.70,-1.29
25,131.8,0.0500,-63.29,1.21
26,133.4,0.0500,-63.32,2.00
27,134.9,0.0500,-62.02,0.68
28,136.5,0.0500,-63.45,-1.83
29,138.0,0.0500,-63.62,-0.32
30,139.6,0.0500,-63.05,1.88
31,141.3,0.0500,-62.60,6.42
32,142.9,0.0500,-62.32,-0.71
33,144.5,0.0500,-62.89,1.02
34,146.2,0.0500,-63.22,6.85
35,147.9,0.0500,-63.32,5.41
36,149.6,0.0500,-62.83,3.55
37,151.4,0.0500,-63.44,6.87
38,153.1,0.0500,-63.61,3.68
39,154.9,0.0500,-63.10,4.26
40,156.7,0.0500,-62.95,4.71
41,158.5,0.0500,-63.36,0.97
42,160.3,0.0500,-63.09,5.12
43,162.2,0.0500,-62.47,2.30
44,164.1,0.0500,-63.19,3.61
45,166.0,0.0500,-63.89,7.05
46,167.9,0.0500,-62.37,4.38
47,169.8,0.0500,-62.29,3.61
48,171.8,0.0500,-62.52,7.77
49,173.8,0.0500,-63.63,7.35
50,175.8,0.0500,-63.52,7.42
51,177.8,0.0500,-63.11,8.46
52,179.9,0.0500,-63.70,9.40
53,182.0,0.0500,-62.42,9.63
54,184.1,0.0500,-63.64,8.56
55,186.2,0.0500,-62.95,1.37
56,188.4,0.0500,-63.39,6.81
57,190.5,0.0500,-62.46,8.73
58,192.8,0.0500,-63.59,6.07
59,195.0,0.0500,-62.29,2.86
60,197.2,0.0500,-62.66,4.96
61,199.5,0.0500,-62.66,8.58
62,201.8,0.0500,-63.00,10.59
63,204.2,0.0500,-63.96,2.90
64,206.5,0.0500,-62.46,10.74
65,208.9,0.0500,-62.73,4.74
66,211.3,0.0500,-63.45,9.19
67,213.8,0.0500,-63.12,4.76
68,216.3,0.0500,-62.69,6.27
69,218.8,0.0500,-63.14,7.82
70,221.3,0.0500,-62.64,-4.07
71,223.9,0.0500,-63.73,6.91
72,226.5,0.0500,-62.31,6.79
73,229.1,0.0500,-62.23,1.22
74,231.7,0.0500,-62.03,3.78
75,234.4,0.0500,-63.15,11.19
76,237.1,0.0500,-63.57,5.50
77,239.9,0.0500,-62.90,4.06
78,242.7,0.0500,-62.72,2.38
79,245.5,0.0500,-63.00,5.05
80,248.3,0.0500,-63.55,2.55
81,251.2,0.0500,-63.41,7.10
82,254.1,0.0500,-63.02,12.02
83,257.0,0.0500,-62.77,9.45
84,260.0,0.0500,-63.62,11.54
85,263.0,0.0500,-62.37,6.00
86,266.1,0.0500,-63.89,5.51
87,269.2,0.0500,-62.16,7.22
88,272.3,0.0500,-63.63,4.12
89,275.4,0.0500,-63.39,10.32
90,278.6,0.0500,-63.17,3.68
91,281.8,0.0500,-62.95,9.86
92,285.1,0.0500,-63.03,4.53
93,288.4,0.0500,-63.25,7.25
94,291.7,0.0500,-63.12,1.97
95,295.1,0.0500,-62.35,11.70
96,298.5,0.0500,-62.82,14.73
97,302.0,0.0500,-62.92,12.40
98,305.5,0.0500,-62.37,6.18
99,309.0,0.0500,-62.50,5.81
100,312.6,0.0500,-63.03,9.84
101,316.2,0.0500,-63.08,10.36
102,319.9,0.0500,-62.80,5.11
103,323.6,0.0500,-62.57,13.19
104,327.3,0.0500,-62.70,7.12
105,331.1,0.0500,-63.56,9.92
106,335.0,0.0500,-63.35,12.54
107,338.8,0.0500,-62.33,11.64
108,342.8,0.0500,-63.15,10.00
109,346.7,0.0500,-63.19,11.54
110,350.8,0.0500,-62.48,9.51
111,354.8,0.0500,-62.67,10.67
112,358.9,0.0500,-63.50,8.37
113,363.1,0.0500,-62.32,16.92
114,367.3,0.0500,-62.97,8.30
115,371.5,0.0500,-63.42,11.53
116,375.8,0.0500,-62.98,9.02
117,380.2,0.0500,-62.86,13.04
118,384.6,0.0500,-63.13,12.81
119,389.0,0.0500,-63.26,13.23
120,393.6,0.0500,-62.66,13.62
121,398.1,0.0500,-62.64,17.20
122,402.7,0.0500,-63.49,9.38
123,407.4,0.0500,-62.71,11.53
124,412.1,0.0500,-62.47,10.67
125,416.9,0.0500,-63.85,9.51
126,421.7,0.0500,-62.45,16.69
127,426.6,0.0500,-63.08,15.20
128,431.5,0.0500,-62.71,13.90
129,436.5,0.0500,-63.14,14.00
130,441.6,0.0500,-62.93,12.32
131,446.7,0.0500,-63.13,15.23
132,451.9,0.0500,-62.73,8.98
133,457.1,0.0500,-62.21,14.98
134,462.4,0.0500,-62.39,12.94
135,467.7,0.0500,-63.05,12.15
136,473.2,0.0500,-62.36,14.50
137,478.6,0.0500,-62.50,12.89
138,484.2,0.0500,-62.76,17.71
139,489.8,0.0500,-61.93,13.89
140,495.5,0.0500,-63.10,19.36
141,501.2,0.0500,-62.79,13.29
142,507.0,0.0500,-62.94,16.36
143,512.9,0.0500,-62.54,14.16
144,518.8,0.0500,-62.43,13.45
145,524.8,0.0500,-63.08,15.40
146,530.9,0.0500,-63.10,16.10
147,537.0,0.0500,-62.99,16.90
148,543.3,0.0500,-62.42,15.19
149,549.5,0.0500,-62.84,20.65
150,555.9,0.0500,-62.95,20.72
151,562.3,0.0500,-62.47,14.35
152,568.9,0.0500,-62.26,17.31
153,575.4,0.0500,-62.05,13.68
154,582.1,0.0500,-62.29,16.12
155,588.8,0.0500,-63.33,20.62
156,595.7,0.0500,-62.87,17.06
157,602.6,0.0500,-62.52,19.00
158,609.5,0.0500,-62.08,15.32
159,616.6,0.0500,-62.68,15.38
160,623.7,0.0500,-62.53,19.98
161,631.0,0.0500,-62.03,19.01
162,638.3,0.0500,-61.95,18.42
163,645.7,0.0500,-62.42,17.50
164,653.1,0.0500,-61.97,18.16
165,660.7,0.0500,-62.01,20.46
166,668.3,0.0500,-62.46,20.32
167,676.1,0.0500,-62.62,18.31
168,683.9,0.0500,-62.23,17.81
169,691.8,0.0500,-62.47,17.78
170,699.8,0.0500,-62.30,15.22
171,707.9,0.0500,-62.93,19.92
172,716.1,0.0500,-62.41,24.87
173,724.4,0.0500,-62.80,16.56
174,732.8,0.0500,-61.69,16.45
175,741.3,0.0500,-62.02,23.93
176,749.9,0.0500,-62.68,18.04
177,758.6,0.0500,-61.46,22.78
178,767.4,0.0500,-63.12,20.51
179,776.2,0.0500,-62.47,22.10
180,785.2,0.0500,-62.92,24.01
181,794.3,0.0500,-62.23,16.47
182,803.5,0.0500,-62.11,19.91
183,812.8,0.0500,-62.10,22.41
184,822.2,0.0500,-62.31,24.75
185,831.8,0.0500,-61.95,22.15
186,841.4,0.0500,-61.20,23.46
187,851.1,0.0500,-62.01,21.40
188,861.0,0.0500,-61.94,24.92
189,871.0,0.0500,-62.48,22.33
190,881.0,0.0500,-62.66,23.79
191,891.3,0.0500,-62.04,25.40
192,901.6,0.0500,-62.29,20.07
193,912.0,0.0500,-61.73,27.86
194,922.6,0.0500,-62.34,22.18
195,933.3,0.0500,-62.15,24.45
196,944.1,0.0500,-61.86,21.27
197,955.0,0.0500,-61.57,28.19
198,966.1,0.0500,-61.37,27.54
199,977.2,0.0500,-62.33,27.00
200,988.6,0.0500,-61.52,24.74
201,1000.0,0.0500,-61.74,25.14
202,1011.6,0.0500,-61.11,26.83
203,1023.3,0.0500,-62.06,23.60
204,1035.1,0.0500,-61.78,30.75
205,1047.1,0.0500,-61.49,25.97
206,1059.3,0.0500,-60.96,25.33
207,1071.5,0.0500,-61.79,31.08
208,1083.9,0.0500,-61.32,27.29
209,1096.5,0.0500,-61.24,31.70
210,1109.2,0.0500,-61.20,29.22
211,1122.0,0.0500,-62.40,27.99
212,1135.0,0.0500,-61.25,32.36
213,1148.2,0.0500,-61.15,23.65
214,1161.4,0.0500,-61.59,25.97
215,1174.9,0.0500,-61.67,31.29
216,1188.5,0.0500,-61.54,32.77
217,1202.3,0.0500,-61.83,31.45
218,1216.2,0.0500,-62.02,31.67
219,1230.3,0.0500,-61.41,31.28
220,1244.5,0.0500,-60.76,34.34
221,1258.9,0.0500,-61.49,28.24
222,1273.5,0.0500,-61.15,33.68
223,1288.2,0.0500,-61.51,33.52
224,1303.2,0.0500,-61.30,33.08
225,1318.3,0.0500,-60.93,31.71
226,1333.5,0.0500,-61.03,34.90
227,1349.0,0.0500,-61.29,37.30
228,1364.6,0.0500,-61.06,32.93
229,1380.4,0.0500,-61.39,36.23
230,1396.4,0.0500,-61.13,34.11
231,1412.5,0.0500,-61.27,35.44
232,1428.9,0.0500,-60.65,35.06
233,1445.4,0.0500,-61.30,33.65
234,1462.2,0.0500,-60.88,37.10
235,1479.1,0.0500,-61.54,39.11
236,1496.2,0.0500,-60.80,40.05
237,1513.6,0.0500,-60.88,36.47
238,1531.1,0.0500,-60.72,39.48
239,1548.8,0.0500,-61.29,40.46
240,1566.8,0.0500,-60.69,36.57
241,1584.9,0.0500,-61.24,38.34
242,1603.2,0.0500,-60.19,41.57
243,1621.8,0.0500,-60.41,41.05
244,1640.6,0.0500,-60.19,34.94
245,1659.6,0.0500,-60.46,39.21
246,1678.8,0.0500,-60.92,39.34
247,1698.2,0.0500,-60.10,39.48
248,1717.9,0.0500,-60.27,41.95
249,1737.8,0.0500,-60.21,41.97
250,1757.9,0.0500,-59.94,41.66
251,1778.3,0.0500,-60.79,42.21
252,1798.9,0.0500,-60.89,38.41
253,1819.7,0.0500,-59.99,42.01
254,1840.8,0.0500,-59.68,43.42
255,1862.1,0.0500,-59.99,41.78
256,1883.6,0.0500,-59.89,41.01
257,1905.5,0.0500,-59.92,49.10
258,1927.5,0.0500,-59.77,46.96
259,1949.8,0.0500,-59.92,43.27
260,1972.4,0.0500,-60.19,43.32
261,1995.3,0.0500,-59.29,44.10
262,2018.4,0.0500,-60.15,45.14
263,2041.7,0.0500,-59.72,42.88
264,2065.4,0.0500,-59.40,43.29
265,2089.3,0.0500,-59.65,52.22
266,2113.5,0.0500,-59.53,51.04
267,2138.0,0.0500,-59.49,51.82
268,2162.7,0.0500,-59.66,48.50
269,2187.8,0.0500,-59.39,49.62
270,2213.1,0.0500,-59.38,47.60
271,2238.7,0.0500,-59.52,46.39
272,2264.6,0.0500,-59.72,43.28
273,2290.9,0.0500,-59.35,46.89
274,2317.4,0.0500,-59.27,47.69
275,2344.2,0.0500,-58.89,48.44
276,2371.4,0.0500,-59.19,47.32
277,2398.8,0.0500,-58.71,53.35
278,2426.6,0.0500,-59.02,52.53
279,2454.7,0.0500,-58.48,54.28
280,2483.1,0.0500,-58.82,51.30
281,2511.9,0.0500,-58.47,49.06
282,2541.0,0.0500,-58.54,51.65
283,2570.4,0.0500,-58.47,50.27
284,2600.2,0.0500,-58.84,54.19
285,2630.3,0.0500,-58.31,51.68
286,2660.7,0.0500,-58.47,53.62
287,2691.5,0.0500,-58.64,53.45
288,2722.7,0.0500,-58.25,53.62
289,2754.2,0.0500,-57.61,55.38
290,2786.1,0.0500,-57.69,54.12
291,2818.4,0.0500,-58.28,52.82
292,2851.0,0.0500,-58.23,56.15
293,2884.0,0.0500,-57.91,52.00
294,2917.4,0.0500,-57.81,57.40
295,2951.2,0.0500,-57.70,58.14
296,2985.4,0.0500,-57.55,52.17
297,3020.0,0.0500,-57.55,53.61
298,3054.9,0.0500,-57.80,57.81
299,3090.3,0.0500,-57.61,55.48
300,3126.1,0.0500,-56.89,56.15
301,3162.3,0.0500,-57.47,57.94
302,3198.9,0.0500,-57.31,59.13
303,3235.9,0.0500,-57.02,58.97
304,3273.4,0.0500,-57.19,58.52
305,3311.3,0.0500,-57.25,56.91
306,3349.7,0.0500,-56.77,57.94
307,3388.4,0.0500,-56.71,58.03
308,3427.7,0.0500,-56.63,59.10
309,3467.4,0.0500,-56.42,60.68
310,3507.5,0.0500,-56.36,61.43
311,3548.1,0.0500,-56.66,60.07
312,3589.2,0.0500,-56.35,61.50
313,3630.8,0.0500,-56.36,61.68
314,3672.8,0.0500,-56.18,62.68
315,3715.4,0.0500,-56.22,62.82
316,3758.4,0.0500,-56.22,61.88
317,3801.9,0.0500,-56.08,63.59
318,3845.9,0.0500,-56.31,63.10
319,3890.5,0.0500,-55.47,63.23
320,3935.5,0.0500,-55.72,63.90
321,3981.1,0.0500,-55.75,65.63
322,4027.2,0.0500,-55.67,61.64
323,4073.8,0.0500,-55.80,65.12
324,4121.0,0.0500,-55.43,63.72
325,4168.7,0.0500,-55.53,65.22
326,4217.0,0.0500,-55.32,64.50
327,4265.8,0.0500,-55.22,65.70
328,4315.2,0.0500,-55.27,65.96
329,4365.2,0.0500,-55.05,65.28
330,4415.7,0.0500,-55.08,65.96
331,4466.8,0.0500,-54.72,66.57
332,4518.6,0.0500,-54.66,64.80
333,4570.9,0.0500,-54.99,66.92
334,4623.8,0.0500,-55.00,66.57
335,4677.4,0.0500,-54.57,67.11
336,4731.5,0.0500,-54.30,68.57
337,4786.3,0.0500,-54.47,68.15
338,4841.7,0.0500,-54.32,66.71
339,4897.8,0.0500,-54.28,68.12
340,4954.5,0.0500,-54.07,67.88
341,5011.9,0.0500,-53.82,68.53
342,5069.9,0.0500,-53.95,68.69
343,5128.6,0.0500,-54.02,67.29
344,5188.0,0.0500,-53.48,69.38
345,5248.1,0.0500,-53.70,69.03
346,5308.8,0.0500,-53.44,68.49
347,5370.3,0.0500,-53.51,68.95
348,5432.5,0.0500,-53.48,68.66
349,5495.4,0.0500,-53.19,69.44
350,5559.0,0.0500,-53.17,70.17
351,5623.4,0.0500,-53.14,69.78
352,5688.5,0.0500,-52.98,71.03
353,5754.4,0.0500,-53.18,69.64
354,5821.0,0.0500,-52.98,69.51
355,5888.4,0.0500,-53.01,70.61
356,5956.6,0.0500,-52.87,71.02
357,6025.6,0.0500,-52.64,71.24
358,6095.4,0.0500,-52.45,71.15
359,6166.0,0.0500,-52.60,70.69
360,6237.3,0.0500,-52.42,71.83
361,6309.6,0.0500,-52.40,72.99
362,6382.6,0.0500,-52.38,72.34
363,6456.5,0.0500,-52.19,72.79
364,6531.3,0.0500,-51.98,74.37
365,6606.9,0.0500,-51.95,72.46
366,6683.4,0.0500,-52.12,74.12
367,6760.8,0.0500,-51.82,73.94
368,6839.1,0.0500,-51.66,74.03
369,6918.3,0.0500,-51.65,76.18
370,6998.4,0.0500,-51.59,74.58
371,7079.5,0.0500,-51.32,73.99
372,7161.4,0.0500,-50.97,73.14
373,7244.4,0.0500,-51.34,74.37
374,7328.2,0.0500,-51.05,75.14
375,7413.1,0.0500,-50.85,75.41
376,7498.9,0.0500,-50.95,75.17
377,7585.8,0.0500,-50.98,74.16
378,7673.6,0.0500,-50.62,74.64
379,7762.5,0.0500,-50.78,75.58
380,7852.4,0.0500,-50.63,75.43
381,7943.3,0.0500,-50.35,75.87
382,8035.3,0.0500,-50.32,75.18
383,8128.3,0.0500,-50.27,77.14
384,8222.4,0.0500,-50.23,75.18
385,8317.6,0.0500,-50.21,76.82
386,8414.0,0.0500,-49.91,76.25
387,8511.4,0.0500,-49.87,76.68
388,8609.9,0.0500,-49.75,76.79
389,8709.6,0.0500,-49.73,76.72
390,8810.5,0.0500,-49.66,78.04
391,8912.5,0.0500,-49.56,78.11
392,9015.7,0.0500,-49.47,77.02
393,9120.1,0.0500,-49.42,77.23
394,9225.7,0.0500,-49.37,77.25
395,9332.5,0.0500,-48.98,76.86
396,9440.6,0.0500,-48.98,78.62
397,9549.9,0.0500,-48.90,77.95
398,9660.5,0.0500,-48.90,78.20
399,9772.4,0.0500,-48.74,78.25
400,9885.5,0.0500,-48.77,77.98
401,10000.0,0.0500,-48.63,78.44
402,10115.8,0.0500,-48.59,78.33
403,10232.9,0.0500,-48.43,78.62
404,10351.4,0.0500,-48.16,78.87
405,10471.3,0.0500,-48.07,78.22
406,10592.5,0.0500,-47.96,78.92
407,10715.2,0.0500,-47.86,79.20
408,10839.3,0.0500,-47.85,78.85
409,10964.8,0.0500,-47.78,79.51
410,11091.7,0.0500,-47.66,78.71
411,11220.2,0.0500,-47.69,79.81
412,11350.1,0.0500,-47.52,79.89
413,11481.5,0.0500,-47.47,79.93
414,11614.5,0.0500,-47.39,79.58
415,11749.0,0.0500,-47.12,79.94
416,11885.0,0.0500,-46.98,79.38
417,12022.6,0.0500,-47.08,80.34
418,12161.9,0.0500,-46.90,80.14
419,12302.7,0.0500,-46.80,81.00
420,12445.1,0.0500,-46.65,79.74
421,12589.3,0.0500,-46.73,80.23
422,12735.0,0.0500,-46.51,80.73
423,12882.5,0.0500,-46.49,80.35
424,13031.7,0.0500,-46.34,79.86
425,13182.6,0.0500,-46.32,81.43
426,13335.2,0.0500,-46.09,80.71
427,13489.6,0.0500,-45.95,81.08
428,13645.8,0.0500,-45.94,81.15
429,13803.8,0.0500,-45.91,81.28
430,13963.7,0.0500,-45.78,81.04
431,14125.4,0.0500,-45.71,81.61
432,14288.9,0.0500,-45.60,81.34
433,14454.4,0.0500,-45.51,81.68
434,14621.8,0.0500,-45.46,81.46
435,14791.1,0.0500,-45.17,81.91
436,14962.4,0.0500,-45.15,82.68
437,15135.6,0.0500,-44.98,81.83
438,15310.9,0.0500,-44.86,82.05
439,15488.2,0.0500,-44.79,82.07
440,15667.5,0.0500,-44.69,82.70
441,15848.9,0.0500,-44.78,82.52
442,16032.5,0.0500,-44.59,82.42
443,16218.1,0.0500,-44.48,82.71
444,16405.9,0.0500,-44.37,82.08
445,16595.9,0.0500,-44.33,82.75
446,16788.0,0.0500,-44.07,82.36
447,16982.4,0.0500,-44.12,82.41
448,17179.1,0.0500,-43.90,82.76
449,17378.0,0.0500,-43.80,82.33
450,17579.2,0.0500,-43.72,82.96
451,17782.8,0.0500,-43.66,82.53
452,17988.7,0.0500,-43.50,82.83
453,18197.0,0.0500,-43.47,83.45
454,18407.7,0.0500,-43.38,83.67
455,18620.9,0.0500,-43.29,83.35
456,18836.5,0.0500,-43.15,83.98
457,19054.6,0.0500,-43.08,83.57
458,19275.2,0.0500,-42.96,83.28
459,19498.4,0.0500,-42.94,83.29
460,19724.2,0.0500,-42.72,83.84
461,19952.6,0.0500,-42.68,83.93
462,20183.7,0.0500,-42.57,83.83
463,20417.4,0.0500,-42.52,84.09
464,20653.8,0.0500,-42.27,83.69
465,20893.0,0.0500,-42.27,84.02
466,21134.9,0.0500,-42.14,83.74
467,21379.6,0.0500,-42.05,83.99
468,21627.2,0.0500,-42.00,83.73
469,21877.6,0.0500,-41.88,84.13
470,22130.9,0.0500,-41.72,84.06
471,22387.2,0.0500,-41.59,83.55
472,22646.4,0.0500,-41.52,84.55
473,22908.7,0.0500,-41.45,83.91
474,23173.9,0.0500,-41.38,84.41
475,23442.3,0.0500,-41.27,84.31
476,23713.7,0.0500,-41.21,84.42
477,23988.3,0.0500,-41.05,84.60
478,24266.1,0.0500,-40.96,84.41
479,24547.1,0.0500,-40.92,84.70
480,24831.3,0.0500,-40.79,84.65
481,25118.9,0.0500,-40.66,84.26
482,25409.7,0.0500,-40.54,84.41
483,25704.0,0.0500,-40.38,84.45
484,26001.6,0.0500,-40.36,84.97
485,26302.7,0.0500,-40.31,84.57
486,26607.3,0.0500,-40.15,84.76
487,26915.3,0.0500,-40.02,84.73
488,27227.0,0.0500,-39.95,84.89
489,27542.3,0.0500,-39.83,84.93
490,27861.2,0.0500,-39.72,84.95
491,28183.8,0.0500,-39.67,85.00
492,28510.2,0.0500,-39.55,84.60
493,28840.3,0.0500,-39.44,85.10
494,29174.3,0.0500,-39.31,85.00
495,29512.1,0.0500,-39.16,85.17
496,29853.8,0.0500,-39.18,85.14
497,30199.5,0.0500,-38.95,85.04
498,30549.2,0.0500,-38.88,85.12
499,30903.0,0.0500,-38.87,85.32
500,31260.8,0.0500,-38.72,85.33
501,31622.8,0.0500,-38.62,85.56
502,31989.0,0.0500,-38.51,85.44
503,32359.4,0.0500,-38.44,85.27
504,32734.1,0.0500,-38.31,85.54
505,33113.1,0.0500,-38.24,85.16
506,33496.5,0.0500,-38.10,85.38
507,33884.4,0.0500,-38.05,85.50
508,34276.8,0.0500,-37.98,85.63
509,34673.7,0.0500,-37.83,85.59
510,35075.2,0.0500,-37.74,85.52
511,35481.3,0.0500,-37.59,85.69
512,35892.2,0.0500,-37.56,85.75
513,36307.8,0.0500,-37.47,85.73
514,36728.2,0.0500,-37.30,85.54
515,37153.5,0.0500,-37.21,85.61
516,37583.7,0.0500,-37.12,85.74
517,38018.9,0.0500,-37.05,85.68
518,38459.2,0.0500,-36.92,85.41
519,38904.5,0.0500,-36.82,85.86
520,39355.0,0.0500,-36.65,85.82
521,39810.7,0.0500,-36.65,86.07
522,40271.7,0.0500,-36.51,85.59
523,40738.0,0.0500,-36.41,85.50
524,41209.8,0.0500,-36.30,85.72
525,41686.9,0.0500,-36.20,85.83
526,42169.7,0.0500,-36.10,85.71
527,42658.0,0.0500,-36.00,86.05
528,43151.9,0.0500,-35.92,85.87
529,43651.6,0.0500,-35.74,85.79
530,44157.0,0.0500,-35.72,86.00
531,44668.4,0.0500,-35.56,86.06
532,45185.6,0.0500,-35.45,85.74
533,45708.8,0.0500,-35.36,86.05
534,46238.1,0.0500,-35.34,85.60
535,46773.5,0.0500,-35.17,85.71
536,47315.1,0.0500,-35.07,85.65
537,47863.0,0.0500,-34.94,85.81
538,48417.2,0.0500,-34.81,86.14
539,48977.9,0.0500,-34.76,85.84
540,49545.0,0.0500,-34.62,85.92
541,50118.7,0.0500,-34.52,85.88
542,50699.1,0.0500,-34.41,85.62
543,51286.1,0.0500,-34.32,85.76
544,51880.0,0.0500,-34.20,85.63
545,52480.7,0.0500,-34.15,85.59
546,53088.4,0.0500,-34.04,85.83
547,53703.2,0.0500,-33.92,85.52
548,54325.0,0.0500,-33.78,85.31
549,54954.1,0.0500,-33.72,85.70
550,55590.4,0.0500,-33.62,85.46
551,56234.1,0.0500,-33.51,85.31
552,56885.3,0.0500,-33.37,85.63
553,57544.0,0.0500,-33.27,85.74
554,58210.3,0.0500,-33.19,85.61
555,58884.4,0.0500,-33.10,85.88
556,59566.2,0.0500,-33.00,85.79
557,60256.0,0.0500,-32.88,85.74
558,60953.7,0.0500,-32.79,85.67
559,61659.5,0.0500,-32.66,85.74
560,62373.5,0.0500,-32.66,85.86
561,63095.7,0.0500,-32.56,85.57
562,63826.3,0.0500,-32.43,85.40
563,64565.4,0.0500,-32.29,85.53
564,65313.1,0.0500,-32.16,85.73
565,66069.3,0.0500,-32.05,85.33
566,66834.4,0.0500,-31.98,85.48
567,67608.3,0.0500,-31.87,85.24
568,68391.2,0.0500,-31.74,85.55
569,69183.1,0.0500,-31.64,85.65
570,69984.2,0.0500,-31.59,85.55
571,70794.6,0.0500,-31.40,85.43
572,71614.3,0.0500,-31.42,85.60
573,72443.6,0.0500,-31.30,85.55
574,73282.5,0.0500,-31.18,85.19
575,74131.0,0.0500,-31.09,85.54
576,74989.4,0.0500,-30.96,85.43
577,75857.8,0.0500,-30.88,85.50
578,76736.1,0.0500,-30.77,85.20
579,77624.7,0.0500,-30.66,85.33
580,78523.6,0.0500,-30.51,85.35
581,79432.8,0.0500,-30.42,85.56
582,80352.6,0.0500,-30.35,85.26
583,81283.1,0.0500,-30.23,85.08
584,82224.3,0.0500,-30.12,85.54
585,83176.4,0.0500,-30.01,85.32
586,84139.5,0.0500,-29.91,85.26
587,85113.8,0.0500,-29.77,85.18
588,86099.4,0.0500,-29.72,85.20
589,87096.4,0.0500,-29.60,84.99
590,88104.9,0.0500,-29.46,84.99
591,89125.1,0.0500,-29.49,85.23
592,90157.1,0.0500,-29.31,85.31
593,91201.1,0.0500,-29.18,84.98
594,92257.1,0.0500,-29.10,84.79
595,93325.4,0.0500,-28.91,84.79
596,94406.1,0.0500,-28.89,84.75
597,95499.3,0.0500,-28.73,84.73
598,96605.1,0.0500,-28.63,85.12
599,97723.7,0.0500,-28.49,84.65
600,98855.3,0.0500,-28.47,85.01
601,100000.0,0.0500,-28.29,84.50
602,101157.9,0.0500,-28.25,84.82
603,102329.3,0.0500,-28.12,84.95
604,103514.2,0.0500,-28.01,84.60
605,104712.9,0.0500,-27.91,84.29
606,105925.4,0.0500,-27.79,84.61
607,107151.9,0.0500,-27.71,84.65
608,108392.7,0.0500,-27.60,84.11
609,109647.8,0.0500,-27.47,84.47
610,110917.5,0.0500,-27.34,84.63
611,112201.8,0.0500,-27.24,84.52
612,113501.1,0.0500,-27.14,84.35
613,114815.4,0.0500,-27.08,84.49
614,116144.9,0.0500,-27.00,84.35
615,117489.8,0.0500,-26.81,84.17
616,118850.2,0.0500,-26.74,84.12
617,120226.4,0.0500,-26.61,84.23
618,121618.6,0.0500,-26.52,84.21
619,123026.9,0.0500,-26.41,83.99
620,124451.5,0.0500,-26.34,83.90
621,125892.5,0.0500,-26.16,83.73
622,127350.3,0.0500,-26.05,83.87
623,128825.0,0.0500,-26.00,84.35
624,130316.7,0.0500,-25.84,83.84
625,131825.7,0.0500,-25.80,83.38
626,133352.1,0.0500,-25.62,83.51
627,134896.3,0.0500,-25.53,83.51
628,136458.3,0.0500,-25.41,83.96
629,138038.4,0.0500,-25.30,83.44
630,139636.8,0.0500,-25.17,83.48
631,141253.8,0.0500,-25.10,83.44
632,142889.4,0.0500,-24.95,83.19
633,144544.0,0.0500,-24.90,83.43
634,146217.7,0.0500,-24.77,83.10
635,147910.8,0.0500,-24.65,83.09
636,149623.6,0.0500,-24.48,83.28
637,151356.1,0.0500,-24.41,82.93
638,153108.7,0.0500,-24.29,83.08
639,154881.7,0.0500,-24.15,82.79
640,156675.1,0.0500,-24.04,82.70
641,158489.3,0.0500,-23.93,82.70
642,160324.5,0.0500,-23.82,82.65
643,162181.0,0.0500,-23.71,82.17
644,164059.0,0.0500,-23.57,82.13
645,165958.7,0.0500,-23.49,81.98
646,167880.4,0.0500,-23.38,82.18
