#, Frequency (Hz), Amplitude (Vpp), Gain (dB), Phase (°)
1,100.0,0.0500,-60.33,1.20
2,101.2,0.0500,-60.84,2.74
3,102.3,0.0500,-60.25,1.97
4,103.5,0.0500,-59.92,-0.79
5,104.7,0.0500,-60.47,0.72
6,105.9,0.0500,-60.26,-2.31
7,107.2,0.0500,-60.54,-1.55
8,108.4,0.0500,-60.04,-0.70
9,109.6,0.0500,-61.00,2.26
10,110.9,0.0500,-60.49,3.87
11,112.2,0.0500,-59.97,0.36
12,113.5,0.0500,-61.30,6.66
13,114.8,0.0500,-61.34,5.08
14,116.1,0.0500,-60.02,0.23
15,117.5,0.0500,-59.86,4.27
16,118.9,0.0500,-60.43,1.65
17,120.2,0.0500,-60.56,1.92
18,121.6,0.0500,-59.94,3.02
19,123.0,0.0500,-60.70,3.06
20,124.5,0.0500,-59.93,-2.75
21,125.9,0.0500,-60.63,9.00
22,127.4,0.0500,-61.01,1.13
23,128.8,0.0500,-60.09,3.56
24,130.3,0.0500,-60.42,0.25
25,131.8,0.0500,-59.98,0.76
26,133.4,0.0500,-61.05,1.40
27,134.9,0.0500,-60.33,4.92
28,136.5,0.0500,-59.96,1.75
29,138.0,0.0500,-60.75,4.18
30,139.6,0.0500,-60.06,2.94
31,141.3,0.0500,-60.62,5.70
32,142.9,0.0500,-60.50,1.10
33,144.5,0.0500,-60.48,-1.02
34,146.2,0.0500,-60.85,2.03
35,147.9,0.0500,-59.64,-0.11
36,149.6,0.0500,-60.06,6.69
37,151.4,0.0500,-59.95,4.48
38,153.1,0.0500,-61.24,3.56
39,154.9,0.0500,-60.42,1.92
40,156.7,0.0500,-60.73,4.64
41,158.5,0.0500,-60.16,5.99
42,160.3,0.0500,-60.27,2.71
43,162.2,0.0500,-61.01,9.01
44,164.1,0.0500,-60.17,1.93
45,166.0,0.0500,-59.98,3.87
46,167.9,0.0500,-60.24,4.69
47,169.8,0.0500,-60.18,9.14
48,171.8,0.0500,-60.78,6.86
49,173.8,0.0500,-60.38,2.89
50,175.8,0.0500,-60.40,4.42
51,177.8,0.0500,-60.20,8.55
52,179.9,0.0500,-59.98,1.60
53,182.0,0.0500,-60.58,1.34
54,184.1,0.0500,-59.84,3.89
55,186.2,0.0500,-60.15,3.92
56,188.4,0.0500,-60.20,7.39
57,190.5,0.0500,-60.41,7.20
58,192.8,0.0500,-60.53,1.30
59,195.0,0.0500,-59.79,6.26
60,197.2,0.0500,-60.09,5.40
61,199.5,0.0500,-60.13,5.75
62,201.8,0.0500,-60.19,3.26
63,204.2,0.0500,-60.65,4.66
64,206.5,0.0500,-60.13,5.89
65,208.9,0.0500,-59.90,7.71
66,211.3,0.0500,-60.87,3.51
67,213.8,0.0500,-59.89,4.39
68,216.3,0.0500,-60.49,3.53
69,218.8,0.0500,-59.84,3.18
70,221.3,0.0500,-61.11,4.54
71,223.9,0.0500,-60.44,3.36
72,226.5,0.0500,-60.40,7.95
73,229.1,0.0500,-60.58,5.73
74,231.7,0.0500,-60.38,8.72
75,234.4,0.0500,-60.11,4.83
76,237.1,0.0500,-60.45,5.03
77,239.9,0.0500,-60.20,8.88
78,242.7,0.0500,-60.50,4.63
79,245.5,0.0500,-59.91,5.12
80,248.3,0.0500,-60.75,11.02
81,251.2,0.0500,-60.16,2.49
82,254.1,0.0500,-59.81,7.58
83,257.0,0.0500,-60.56,3.50
84,260.0,0.0500,-60.45,3.00
85,263.0,0.0500,-59.97,5.40
86,266.1,0.0500,-60.39,4.60
87,269.2,0.0500,-60.62,4.84
88,272.3,0.0500,-60.89,5.71
89,275.4,0.0500,-60.38,6.64
90,278.6,0.0500,-60.20,11.57
91,281.8,0.0500,-60.29,5.05
92,285.1,0.0500,-60.22,7.91
93,288.4,0.0500,-60.89,4.90
94,291.7,0.0500,-60.40,5.81
95,295.1,0.0500,-59.90,5.12
96,298.5,0.0500,-59.97,8.02
97,302.0,0.0500,-60.90,7.75
98,305.5,0.0500,-60.38,7.53
99,309.0,0.0500,-60.36,8.87
100,312.6,0.0500,-59.97,5.88
101,316.2,0.0500,-60.61,11.80
102,319.9,0.0500,-60.61,8.99
103,323.6,0.0500,-60.30,4.51
104,327.3,0.0500,-60.74,9.94
105,331.1,0.0500,-59.91,7.38
106,335.0,0.0500,-60.19,8.66
107,338.8,0.0500,-60.04,7.85
108,342.8,0.0500,-60.73,3.73
109,346.7,0.0500,-60.70,9.60
110,350.8,0.0500,-60.27,10.41
111,354.8,0.0500,-60.14,7.53
112,358.9,0.0500,-60.47,11.75
113,363.1,0.0500,-60.21,13.14
114,367.3,0.0500,-60.47,5.96
115,371.5,0.0500,-60.36,13.19
116,375.8,0.0500,-60.40,10.71
117,380.2,0.0500,-60.02,6.69
118,384.6,0.0500,-60.07,10.19
119,389.0,0.0500,-60.73,10.67
120,393.6,0.0500,-60.54,10.25
121,398.1,0.0500,-60.09,8.64
122,402.7,0.0500,-60.02,10.31
123,407.4,0.0500,-59.51,9.80
124,412.1,0.0500,-60.24,14.58
125,416.9,0.0500,-60.51,9.60
126,421.7,0.0500,-60.55,9.62
127,426.6,0.0500,-59.93,8.14
128,431.5,0.0500,-60.94,8.43
129,436.5,0.0500,-60.13,7.62
130,441.6,0.0500,-59.99,8.95
131,446.7,0.0500,-59.95,13.16
132,451.9,0.0500,-60.51,11.81
133,457.1,0.0500,-60.18,11.96
134,462.4,0.0500,-59.65,9.80
135,467.7,0.0500,-59.66,12.94
136,473.2,0.0500,-59.71,15.03
137,478.6,0.0500,-60.22,10.37
138,484.2,0.0500,-60.27,14.87
139,489.8,0.0500,-60.15,11.11
140,495.5,0.0500,-59.75,13.96
141,501.2,0.0500,-59.85,14.28
142,507.0,0.0500,-60.67,12.17
143,512.9,0.0500,-60.88,16.68
144,518.8,0.0500,-60.16,12.22
145,524.8,0.0500,-59.94,9.65
146,530.9,0.0500,-60.35,11.62
147,537.0,0.0500,-59.95,13.78
148,543.3,0.0500,-60.49,15.20
149,549.5,0.0500,-60.31,13.28
150,555.9,0.0500,-59.62,13.75
151,562.3,0.0500,-59.49,13.54
152,568.9,0.0500,-60.04,10.84
153,575.4,0.0500,-59.85,15.79
154,582.1,0.0500,-59.85,12.84
155,588.8,0.0500,-60.12,16.41
156,595.7,0.0500,-60.15,14.15
157,602.6,0.0500,-59.98,15.31
158,609.5,0.0500,-60.04,16.27
159,616.6,0.0500,-59.83,18.40
160,623.7,0.0500,-60.18,15.54
161,631.0,0.0500,-59.53,14.15
162,638.3,0.0500,-59.73,14.23
163,645.7,0.0500,-59.65,14.42
164,653.1,0.0500,-59.73,11.99
165,660.7,0.0500,-59.89,15.72
166,668.3,0.0500,-59.93,14.88
167,676.1,0.0500,-59.60,17.86
168,683.9,0.0500,-59.82,15.28
169,691.8,0.0500,-60.05,15.52
170,699.8,0.0500,-59.82,24.86
171,707.9,0.0500,-60.21,15.40
172,716.1,0.0500,-59.67,13.95
173,724.4,0.0500,-60.14,17.42
174,732.8,0.0500,-59.61,17.50
175,741.3,0.0500,-60.11,19.49
176,749.9,0.0500,-60.03,19.26
177,758.6,0.0500,-60.14,16.37
178,767.4,0.0500,-58.73,15.68
179,776.2,0.0500,-60.29,20.70
180,785.2,0.0500,-59.56,18.16
181,794.3,0.0500,-59.82,26.18
182,803.5,0.0500,-60.04,21.93
183,812.8,0.0500,-59.57,22.24
184,822.2,0.0500,-59.87,17.59
185,831.8,0.0500,-59.45,21.50
186,841.4,0.0500,-59.30,17.39
187,851.1,0.0500,-59.83,19.97
188,861.0,0.0500,-59.43,20.49
189,871.0,0.0500,-59.55,21.70
190,881.0,0.0500,-59.65,21.97
191,891.3,0.0500,-59.30,19.43
192,901.6,0.0500,-59.33,21.27
193,912.0,0.0500,-60.20,22.41
194,922.6,0.0500,-59.71,22.06
195,933.3,0.0500,-59.33,22.14
196,944.1,0.0500,-59.27,25.54
197,955.0,0.0500,-59.81,21.04
198,966.1,0.0500,-59.21,26.43
199,977.2,0.0500,-59.96,25.55
200,988.6,0.0500,-60.12,26.22
201,1000.0,0.0500,-59.58,25.26
202,1011.6,0.0500,-59.48,21.69
203,1023.3,0.0500,-59.22,23.94
204,1035.1,0.0500,-59.27,23.53
205,1047.1,0.0500,-59.20,24.13
206,1059.3,0.0500,-59.02,23.00
207,1071.5,0.0500,-59.37,22.97
208,1083.9,0.0500,-58.97,24.76
209,1096.5,0.0500,-58.96,24.68
210,1109.2,0.0500,-59.09,28.23
211,1122.0,0.0500,-59.21,30.29
212,1135.0,0.0500,-59.15,26.59
213,1148.2,0.0500,-60.15,31.98
214,1161.4,0.0500,-59.11,28.84
215,1174.9,0.0500,-59.35,26.17
216,1188.5,0.0500,-59.42,26.76
217,1202.3,0.0500,-59.24,28.81
218,1216.2,0.0500,-59.56,27.49
219,1230.3,0.0500,-59.21,29.80
220,1244.5,0.0500,-58.79,30.32
221,1258.9,0.0500,-59.33,27.27
222,1273.5,0.0500,-59.35,29.29
223,1288.2,0.0500,-58.89,31.16
224,1303.2,0.0500,-58.95,29.00
225,1318.3,0.0500,-58.78,29.86
226,1333.5,0.0500,-59.57,30.74
227,1349.0,0.0500,-58.67,30.61
228,1364.6,0.0500,-58.75,30.51
229,1380.4,0.0500,-59.13,32.52
230,1396.4,0.0500,-59.61,34.07
231,1412.5,0.0500,-59.04,32.11
232,1428.9,0.0500,-58.42,29.18
233,1445.4,0.0500,-58.95,34.55
234,1462.2,0.0500,-59.13,29.59
235,1479.1,0.0500,-58.64,33.90
236,1496.2,0.0500,-58.79,33.21
237,1513.6,0.0500,-59.17,36.58
238,1531.1,0.0500,-58.77,34.58
239,1548.8,0.0500,-58.69,35.00
240,1566.8,0.0500,-58.02,33.11
241,1584.9,0.0500,-58.67,35.61
242,1603.2,0.0500,-58.75,34.03
243,1621.8,0.0500,-58.61,36.33
244,1640.6,0.0500,-58.47,37.54
245,1659.6,0.0500,-58.26,35.00
246,1678.8,0.0500,-57.97,37.95
247,1698.2,0.0500,-58.04,36.19
248,1717.9,0.0500,-58.11,37.49
249,1737.8,0.0500,-58.43,38.15
250,1757.9,0.0500,-58.17,39.86
251,1778.3,0.0500,-58.13,36.06
252,1798.9,0.0500,-58.46,36.26
253,1819.7,0.0500,-58.11,37.40
254,1840.8,0.0500,-58.12,39.75
255,1862.1,0.0500,-58.15,37.71
256,1883.6,0.0500,-57.66,42.11
257,1905.5,0.0500,-58.01,40.96
258,1927.5,0.0500,-58.21,40.75
259,1949.8,0.0500,-58.04,42.76
260,1972.4,0.0500,-58.02,41.50
261,1995.3,0.0500,-57.64,41.84
262,2018.4,0.0500,-57.56,38.38
263,2041.7,0.0500,-57.88,43.10
264,2065.4,0.0500,-57.30,42.23
265,2089.3,0.0500,-56.96,43.77
266,2113.5,0.0500,-57.54,44.76
267,2138.0,0.0500,-57.37,42.92
268,2162.7,0.0500,-57.33,42.72
269,2187.8,0.0500,-57.32,42.94
270,2213.1,0.0500,-57.15,43.89
271,2238.7,0.0500,-56.97,45.64
272,2264.6,0.0500,-57.26,44.61
273,2290.9,0.0500,-57.12,43.77
274,2317.4,0.0500,-56.98,43.82
275,2344.2,0.0500,-57.20,44.28
276,2371.4,0.0500,-57.16,47.27
277,2398.8,0.0500,-56.77,45.12
278,2426.6,0.0500,-56.82,47.92
279,2454.7,0.0500,-56.80,46.23
280,2483.1,0.0500,-56.89,48.18
281,2511.9,0.0500,-56.50,46.22
282,2541.0,0.0500,-56.77,49.93
283,2570.4,0.0500,-56.70,47.76
284,2600.2,0.0500,-56.68,48.15
285,2630.3,0.0500,-56.67,48.32
286,2660.7,0.0500,-57.01,49.81
287,2691.5,0.0500,-56.59,49.46
288,2722.7,0.0500,-56.46,49.13
289,2754.2,0.0500,-56.49,51.23
290,2786.1,0.0500,-56.44,48.56
291,2818.4,0.0500,-56.07,50.60
292,2851.0,0.0500,-56.10,49.62
293,2884.0,0.0500,-56.27,52.95
294,2917.4,0.0500,-55.97,54.74
295,2951.2,0.0500,-55.62,52.06
296,2985.4,0.0500,-55.73,51.38
297,3020.0,0.0500,-55.81,51.07
298,3054.9,0.0500,-55.73,52.75
299,3090.3,0.0500,-55.95,52.04
300,3126.1,0.0500,-55.63,52.57
301,3162.3,0.0500,-55.28,53.60
302,3198.9,0.0500,-55.41,54.86
303,3235.9,0.0500,-55.48,54.95
304,3273.4,0.0500,-55.12,56.59
305,3311.3,0.0500,-55.24,55.83
306,3349.7,0.0500,-55.10,56.02
307,3388.4,0.0500,-54.83,54.88
308,3427.7,0.0500,-54.92,56.71
309,3467.4,0.0500,-55.05,55.09
310,3507.5,0.0500,-54.92,57.35
311,3548.1,0.0500,-54.60,55.84
312,3589.2,0.0500,-55.05,57.91
313,3630.8,0.0500,-54.69,56.51
314,3672.8,0.0500,-54.68,56.99
315,3715.4,0.0500,-54.39,57.51
316,3758.4,0.0500,-53.88,61.63
317,3801.9,0.0500,-54.58,59.80
318,3845.9,0.0500,-54.44,58.51
319,3890.5,0.0500,-54.24,59.20
320,3935.5,0.0500,-54.13,59.62
321,3981.1,0.0500,-54.09,58.70
322,4027.2,0.0500,-54.34,61.46
323,4073.8,0.0500,-53.67,60.21
324,4121.0,0.0500,-53.86,59.91
325,4168.7,0.0500,-53.84,61.02
326,4217.0,0.0500,-53.81,60.94
327,4265.8,0.0500,-53.90,60.84
328,4315.2,0.0500,-53.50,61.15
329,4365.2,0.0500,-53.62,63.41
330,4415.7,0.0500,-53.35,62.79
331,4466.8,0.0500,-53.36,62.87
332,4518.6,0.0500,-53.20,63.23
333,4570.9,0.0500,-53.02,62.93
334,4623.8,0.0500,-53.05,63.13
335,4677.4,0.0500,-52.87,64.08
336,4731.5,0.0500,-52.94,63.56
337,4786.3,0.0500,-53.12,64.23
338,4841.7,0.0500,-52.69,65.45
339,4897.8,0.0500,-52.79,64.90
340,4954.5,0.0500,-52.47,63.10
341,5011.9,0.0500,-52.41,63.84
342,5069.9,0.0500,-52.47,65.69
343,5128.6,0.0500,-52.32,66.17
344,5188.0,0.0500,-52.51,66.24
345,5248.1,0.0500,-52.28,65.25
346,5308.8,0.0500,-51.94,65.09
347,5370.3,0.0500,-52.05,66.89
348,5432.5,0.0500,-51.91,66.92
349,5495.4,0.0500,-51.95,67.62
350,5559.0,0.0500,-51.76,66.90
351,5623.4,0.0500,-51.82,67.95
352,5688.5,0.0500,-51.58,68.49
353,5754.4,0.0500,-51.62,68.26
354,5821.0,0.0500,-51.59,69.40
355,5888.4,0.0500,-51.22,68.70
356,5956.6,0.0500,-51.23,68.11
357,6025.6,0.0500,-51.18,68.90
358,6095.4,0.0500,-51.08,68.20
359,6166.0,0.0500,-51.04,70.59
360,6237.3,0.0500,-50.93,69.84
361,6309.6,0.0500,-50.75,70.73
362,6382.6,0.0500,-50.56,68.91
363,6456.5,0.0500,-50.69,69.47
364,6531.3,0.0500,-50.33,69.85
365,6606.9,0.0500,-50.31,71.36
366,6683.4,0.0500,-50.25,71.09
367,6760.8,0.0500,-50.05,71.96
368,6839.1,0.0500,-50.06,72.68
369,6918.3,0.0500,-50.30,71.75
370,6998.4,0.0500,-49.93,71.48
371,7079.5,0.0500,-49.41,71.62
372,7161.4,0.0500,-50.09,71.54
373,7244.4,0.0500,-49.76,71.88
374,7328.2,0.0500,-49.64,74.13
375,7413.1,0.0500,-49.61,73.25
376,7498.9,0.0500,-49.56,72.37
377,7585.8,0.0500,-49.42,72.45
378,7673.6,0.0500,-49.27,72.67
379,7762.5,0.0500,-49.34,74.47
380,7852.4,0.0500,-48.93,73.08
381,7943.3,0.0500,-48.97,73.23
382,8035.3,0.0500,-49.01,73.48
383,8128.3,0.0500,-48.85,73.96
384,8222.4,0.0500,-48.54,74.35
385,8317.6,0.0500,-48.59,73.13
386,8414.0,0.0500,-48.57,74.68
387,8511.4,0.0500,-48.43,75.07
388,8609.9,0.0500,-48.21,74.75
389,8709.6,0.0500,-48.31,75.34
390,8810.5,0.0500,-48.26,74.93
391,8912.5,0.0500,-48.17,75.16
392,9015.7,0.0500,-47.85,75.79
393,9120.1,0.0500,-48.02,75.26
394,9225.7,0.0500,-47.70,76.40
395,9332.5,0.0500,-47.58,76.03
396,9440.6,0.0500,-47.60,76.86
397,9549.9,0.0500,-47.39,76.11
398,9660.5,0.0500,-47.37,75.34
399,9772.4,0.0500,-47.28,76.06
400,9885.5,0.0500,-47.21,76.10
401,10000.0,0.0500,-47.05,76.62
402,10115.8,0.0500,-46.99,76.73
403,10232.9,0.0500,-46.95,77.32
404,10351.4,0.0500,-46.79,76.20
405,10471.3,0.0500,-46.75,77.49
406,10592.5,0.0500,-46.58,77.20
407,10715.2,0.0500,-46.51,77.71
408,10839.3,0.0500,-46.48,77.78
409,10964.8,0.0500,-46.37,77.97
410,11091.7,0.0500,-46.26,77.34
411,11220.2,0.0500,-46.04,77.60
412,11350.1,0.0500,-46.04,78.48
413,11481.5,0.0500,-45.90,77.89
414,11614.5,0.0500,-45.80,78.49
415,11749.0,0.0500,-45.79,77.86
416,11885.0,0.0500,-45.74,78.04
417,12022.6,0.0500,-45.52,78.72
418,12161.9,0.0500,-45.44,79.11
419,12302.7,0.0500,-45.34,78.72
420,12445.1,0.0500,-45.29,78.77
421,12589.3,0.0500,-45.19,79.28
422,12735.0,0.0500,-45.03,79.48
423,12882.5,0.0500,-44.96,79.09
424,13031.7,0.0500,-44.93,79.60
425,13182.6,0.0500,-44.79,79.26
426,13335.2,0.0500,-44.64,79.59
427,13489.6,0.0500,-44.58,80.16
428,13645.8,0.0500,-44.45,80.65
429,13803.8,0.0500,-44.40,79.95
430,13963.7,0.0500,-44.30,79.93
431,14125.4,0.0500,-44.28,80.08
432,14288.9,0.0500,-44.13,80.42
433,14454.4,0.0500,-43.96,79.73
434,14621.8,0.0500,-43.94,80.28
435,14791.1,0.0500,-43.75,80.23
436,14962.4,0.0500,-43.79,80.03
437,15135.6,0.0500,-43.64,81.00
438,15310.9,0.0500,-43.59,81.12
439,15488.2,0.0500,-43.49,80.84
440,15667.5,0.0500,-43.28,81.19
441,15848.9,0.0500,-43.21,81.18
442,16032.5,0.0500,-43.12,81.55
443,16218.1,0.0500,-42.95,81.05
444,16405.9,0.0500,-42.81,81.30
445,16595.9,0.0500,-42.84,81.44
446,16788.0,0.0500,-42.76,81.52
447,16982.4,0.0500,-42.64,81.71
448,17179.1,0.0500,-42.40,81.28
449,17378.0,0.0500,-42.43,82.45
450,17579.2,0.0500,-42.39,81.77
451,17782.8,0.0500,-42.23,81.88
452,17988.7,0.0500,-42.08,81.83
453,18197.0,0.0500,-42.08,82.08
454,18407.7,0.0500,-42.03,82.25
455,18620.9,0.0500,-41.80,82.10
456,18836.5,0.0500,-41.70,82.11
457,19054.6,0.0500,-41.59,82.33
458,19275.2,0.0500,-41.54,82.82
459,19498.4,0.0500,-41.38,82.68
460,19724.2,0.0500,-41.32,82.54
461,19952.6,0.0500,-41.24,82.57
462,20183.7,0.0500,-41.09,82.65
463,20417.4,0.0500,-41.01,82.64
464,20653.8,0.0500,-40.92,83.01
465,20893.0,0.0500,-40.83,82.54
466,21134.9,0.0500,-40.69,82.99
467,21379.6,0.0500,-40.58,83.15
468,21627.2,0.0500,-40.51,82.86
469,21877.6,0.0500,-40.46,83.27
470,22130.9,0.0500,-40.32,83.32
471,22387.2,0.0500,-40.25,82.95
472,22646.4,0.0500,-40.17,83.04
473,22908.7,0.0500,-40.03,83.38
474,23173.9,0.0500,-39.89,83.62
475,23442.3,0.0500,-39.81,83.32
476,23713.7,0.0500,-39.74,83.74
477,23988.3,0.0500,-39.66,83.59
478,24266.1,0.0500,-39.54,83.58
479,24547.1,0.0500,-39.46,83.47
480,24831.3,0.0500,-39.31,83.95
481,25118.9,0.0500,-39.20,83.82
482,25409.7,0.0500,-39.10,83.88
483,25704.0,0.0500,-39.00,83.71
484,26001.6,0.0500,-38.92,84.21
485,26302.7,0.0500,-38.74,84.13
486,26607.3,0.0500,-38.69,84.02
487,26915.3,0.0500,-38.58,83.97
488,27227.0,0.0500,-38.49,84.04
489,27542.3,0.0500,-38.42,84.57
490,27861.2,0.0500,-38.37,84.16
491,28183.8,0.0500,-38.23,84.39
492,28510.2,0.0500,-38.10,84.24
493,28840.3,0.0500,-38.02,84.44
494,29174.3,0.0500,-37.86,84.28
495,29512.1,0.0500,-37.79,84.47
496,29853.8,0.0500,-37.74,84.68
497,30199.5,0.0500,-37.62,84.49
498,30549.2,0.0500,-37.50,84.44
499,30903.0,0.0500,-37.39,84.70
500,31260.8,0.0500,-37.32,84.90
501,31622.8,0.0500,-37.21,84.56
502,31989.0,0.0500,-37.06,84.52
503,32359.4,0.0500,-36.97,84.43
504,32734.1,0.0500,-36.91,84.80
505,33113.1,0.0500,-36.80,84.37
506,33496.5,0.0500,-36.73,84.95
507,33884.4,0.0500,-36.63,84.52
508,34276.8,0.0500,-36.51,85.08
509,34673.7,0.0500,-36.35,84.95
510,35075.2,0.0500,-36.30,84.92
511,35481.3,0.0500,-36.17,84.80
512,35892.2,0.0500,-36.07,84.97
513,36307.8,0.0500,-36.01,85.10
514,36728.2,0.0500,-35.91,84.91
515,37153.5,0.0500,-35.79,84.92
516,37583.7,0.0500,-35.63,85.11
517,38018.9,0.0500,-35.59,85.07
518,38459.2,0.0500,-35.44,84.95
519,38904.5,0.0500,-35.37,85.13
520,39355.0,0.0500,-35.27,85.22
521,39810.7,0.0500,-35.16,84.94
522,40271.7,0.0500,-35.04,85.09
523,40738.0,0.0500,-34.94,85.16
524,41209.8,0.0500,-34.87,85.35
525,41686.9,0.0500,-34.76,85.16
526,42169.7,0.0500,-34.73,85.10
527,42658.0,0.0500,-34.53,85.52
528,43151.9,0.0500,-34.41,85.50
529,43651.6,0.0500,-34.36,85.43
530,44157.0,0.0500,-34.23,85.12
531,44668.4,0.0500,-34.17,84.95
532,45185.6,0.0500,-34.08,85.32
533,45708.8,0.0500,-33.99,85.31
534,46238.1,0.0500,-33.83,85.58
535,46773.5,0.0500,-33.73,85.12
536,47315.1,0.0500,-33.58,85.40
537,47863.0,0.0500,-33.53,85.44
538,48417.2,0.0500,-33.39,85.46
539,48977.9,0.0500,-33.25,85.29
540,49545.0,0.0500,-33.15,85.43
541,50118.7,0.0500,-33.04,85.38
542,50699.1,0.0500,-32.98,85.28
543,51286.1,0.0500,-32.85,85.21
544,51880.0,0.0500,-32.77,85.10
545,52480.7,0.0500,-32.66,84.85
546,53088.4,0.0500,-32.53,85.09
547,53703.2,0.0500,-32.45,85.39
548,54325.0,0.0500,-32.35,85.11
549,54954.1,0.0500,-32.29,85.24
550,55590.4,0.0500,-32.15,85.25
551,56234.1,0.0500,-32.02,85.06
552,56885.3,0.0500,-31.97,85.17
553,57544.0,0.0500,-31.81,85.14
554,58210.3,0.0500,-31.86,85.13
555,58884.4,0.0500,-31.67,85.18
556,59566.2,0.0500,-31.59,85.31
557,60256.0,0.0500,-31.54,85.11
558,60953.7,0.0500,-31.31,84.90
559,61659.5,0.0500,-31.24,85.02
560,62373.5,0.0500,-31.16,85.09
561,63095.7,0.0500,-31.06,84.95
562,63826.3,0.0500,-30.91,85.13
563,64565.4,0.0500,-30.88,85.24
564,65313.1,0.0500,-30.73,84.58
565,66069.3,0.0500,-30.65,84.83
566,66834.4,0.0500,-30.57,85.11
567,67608.3,0.0500,-30.44,84.78
568,68391.2,0.0500,-30.37,85.28
569,69183.1,0.0500,-30.20,85.11
570,69984.2,0.0500,-30.16,85.01
571,70794.6,0.0500,-30.04,84.58
572,71614.3,0.0500,-29.93,84.85
573,72443.6,0.0500,-29.83,84.86
574,73282.5,0.0500,-29.74,84.79
575,74131.0,0.0500,-29.63,84.93
576,74989.4,0.0500,-29.49,84.75
577,75857.8,0.0500,-29.44,84.94
578,76736.1,0.0500,-29.33,84.65
579,77624.7,0.0500,-29.19,84.70
580,78523.6,0.0500,-29.04,84.66
581,79432.8,0.0500,-28.98,84.56
582,80352.6,0.0500,-28.90,84.89
583,81283.1,0.0500,-28.79,84.64
584,82224.3,0.0500,-28.68,84.65
585,83176.4,0.0500,-28.58,84.57
586,84139.5,0.0500,-28.46,84.58
587,85113.8,0.0500,-28.38,84.56
588,86099.4,0.0500,-28.26,84.49
589,87096.4,0.0500,-28.18,84.68
590,88104.9,0.0500,-28.08,84.30
591,89125.1,0.0500,-27.98,84.62
592,90157.1,0.0500,-27.85,84.31
593,91201.1,0.0500,-27.74,84.58
594,92257.1,0.0500,-27.64,84.36
595,93325.4,0.0500,-27.50,84.51
596,94406.1,0.0500,-27.43,84.58
597,95499.3,0.0500,-27.28,84.30
598,96605.1,0.0500,-27.22,84.13
599,97723.7,0.0500,-27.14,84.18
600,98855.3,0.0500,-27.02,84.36
601,100000.0,0.0500,-26.88,84.33
602,101157.9,0.0500,-26.80,84.17
603,102329.3,0.0500,-26.68,84.15
604,103514.2,0.0500,-26.54,84.08
605,104712.9,0.0500,-26.50,83.81
606,105925.4,0.0500,-26.36,83.99
607,107151.9,0.0500,-26.25,84.17
608,108392.7,0.0500,-26.15,83.91
609,109647.8,0.0500,-26.03,83.92
610,110917.5,0.0500,-25.93,83.61
611,112201.8,0.0500,-25.80,83.84
612,113501.1,0.0500,-25.71,83.76
613,114815.4,0.0500,-25.60,83.70
614,116144.9,0.0500,-25.50,83.34
615,117489.8,0.0500,-25.37,83.50
616,118850.2,0.0500,-25.26,83.30
617,120226.4,0.0500,-25.21,83.34
618,121618.6,0.0500,-25.08,83.40
619,123026.9,0.0500,-24.95,83.47
620,124451.5,0.0500,-24.87,83.03
621,125892.5,0.0500,-24.73,83.14
622,127350.3,0.0500,-24.62,83.09
623,128825.0,0.0500,-24.53,83.00
624,130316.7,0.0500,-24.41,82.96
625,131825.7,0.0500,-24.26,82.85
626,133352.1,0.0500,-24.20,82.96
627,134896.3,0.0500,-24.09,82.76
628,136458.3,0.0500,-23.93,82.73
629,138038.4,0.0500,-23.82,82.70
630,139636.8,0.0500,-23.72,82.47
631,141253.8,0.0500,-23.57,81.92
632,142889.4,0.0500,-23.52,82.61
633,144544.0,0.0500,-23.40,82.43
634,146217.7,0.0500,-23.26,82.34
635,147910.8,0.0500,-23.25,81.72
636,149623.6,0.0500,-23.05,82.29
637,151356.1,0.0500,-22.91,82.19
638,153108.7,0.0500,-22.81,81.99
639,154881.7,0.0500,-22.75,81.59
640,156675.1,0.0500,-22.47,81.70
641,158489.3,0.0500,-22.40,81.97
642,160324.5,0.0500,-22.39,81.64
643,162181.0,0.0500,-22.26,81.61
644,164059.0,0.0500,-22.14,81.67
645,165958.7,0.0500,-21.86,82.29
646,167880.4,0.0500,-21.84,81.12
647,169824.4,0.0500,-21.74,81.18
