#, Frequency (Hz), Amplitude (Vpp), Gain (dB), Phase (°)
1,100.0,0.0500,-76.01,0.92
2,101.2,0.0500,-70.66,-9.52
3,102.3,0.0500,-70.91,-7.28
4,103.5,0.0500,-73.22,-9.07
5,104.7,0.0500,-72.92,2.29
6,105.9,0.0500,-72.41,13.77
7,107.2,0.0500,-71.12,-12.96
8,108.4,0.0500,-72.31,-2.51
9,109.6,0.0500,-72.14,-1.77
10,110.9,0.0500,-72.43,-6.08
11,112.2,0.0500,-71.58,-16.58
12,113.5,0.0500,-72.92,1.57
13,114.8,0.0500,-74.61,8.12
14,116.1,0.0500,-71.17,-15.11
15,117.5,0.0500,-73.24,-9.43
16,118.9,0.0500,-73.03,-0.25
17,120.2,0.0500,-74.77,-1.08
18,121.6,0.0500,-71.55,-6.29
19,123.0,0.0500,-76.27,-6.22
20,124.5,0.0500,-73.60,10.95
21,125.9,0.0500,-72.08,10.54
22,127.4,0.0500,-73.78,-8.22
23,128.8,0.0500,-71.67,1.68
24,130.3,0.0500,-74.76,0.96
25,131.8,0.0500,-72.94,12.13
26,133.4,0.0500,-72.62,-7.51
27,134.9,0.0500,-76.52,20.08
28,136.5,0.0500,-74.24,-1.88
29,138.0,0.0500,-71.18,-3.22
30,139.6,0.0500,-73.10,-3.59
31,141.3,0.0500,-71.73,7.64
32,142.9,0.0500,-73.30,1.39
33,144.5,0.0500,-70.99,-10.18
34,146.2,0.0500,-71.58,5.64
35,147.9,0.0500,-75.60,1.18
36,149.6,0.0500,-72.57,3.44
37,151.4,0.0500,-77.52,18.09
38,153.1,0.0500,-72.82,-16.19
39,154.9,0.0500,-72.63,7.99
40,156.7,0.0500,-77.44,-10.63
41,158.5,0.0500,-71.68,-5.16
42,160.3,0.0500,-72.59,24.50
43,162.2,0.0500,-76.58,10.46
44,164.1,0.0500,-72.19,18.34
45,166.0,0.0500,-74.72,-5.32
46,167.9,0.0500,-71.02,2.67
47,169.8,0.0500,-75.85,-2.16
48,171.8,0.0500,-74.35,-2.28
49,173.8,0.0500,-76.27,10.54
50,175.8,0.0500,-73.06,3.03
51,177.8,0.0500,-70.37,-3.88
52,179.9,0.0500,-73.31,-19.70
53,182.0,0.0500,-70.74,-2.38
54,184.1,0.0500,-72.98,3.27
55,186.2,0.0500,-74.31,0.24
56,188.4,0.0500,-73.41,0.56
57,190.5,0.0500,-70.87,12.80
58,192.8,0.0500,-72.19,-4.53
59,195.0,0.0500,-72.07,26.16
60,197.2,0.0500,-73.05,-2.37
61,199.5,0.0500,-71.33,11.20
62,201.8,0.0500,-73.45,2.59
63,204.2,0.0500,-74.12,-14.57
64,206.5,0.0500,-73.92,-0.15
65,208.9,0.0500,-71.16,1.47
66,211.3,0.0500,-73.56,-2.26
67,213.8,0.0500,-74.07,10.37
68,216.3,0.0500,-72.38,-0.46
69,218.8,0.0500,-70.92,1.56
70,221.3,0.0500,-74.03,4.19
71,223.9,0.0500,-72.85,2.25
72,226.5,0.0500,-72.81,-7.33
73,229.1,0.0500,-72.88,4.20
74,231.7,0.0500,-71.63,6.45
75,234.4,0.0500,-73.89,6.48
76,237.1,0.0500,-71.01,-5.28
77,239.9,0.0500,-76.53,4.03
78,242.7,0.0500,-71.13,20.29
79,245.5,0.0500,-71.80,-0.98
80,248.3,0.0500,-70.63,5.70
81,251.2,0.0500,-72.85,19.44
82,254.1,0.0500,-72.25,3.70
83,257.0,0.0500,-71.07,5.55
84,260.0,0.0500,-70.48,0.89
85,263.0,0.0500,-74.36,-5.96
86,266.1,0.0500,-70.34,5.68
87,269.2,0.0500,-72.07,9.10
88,272.3,0.0500,-71.62,8.90
89,275.4,0.0500,-71.72,14.54
90,278.6,0.0500,-72.24,2.30
91,281.8,0.0500,-73.33,-11.80
92,285.1,0.0500,-71.65,-0.79
93,288.4,0.0500,-71.72,4.65
94,291.7,0.0500,-73.32,8.24
95,295.1,0.0500,-72.14,13.58
96,298.5,0.0500,-71.86,9.76
97,302.0,0.0500,-73.30,-5.84
98,305.5,0.0500,-73.04,7.30
99,309.0,0.0500,-71.60,15.33
100,312.6,0.0500,-71.76,-11.05
101,316.2,0.0500,-72.70,0.31
102,319.9,0.0500,-73.49,7.32
103,323.6,0.0500,-73.37,2.91
104,327.3,0.0500,-72.91,10.02
105,331.1,0.0500,-71.51,7.15
106,335.0,0.0500,-74.26,-3.11
107,338.8,0.0500,-73.43,17.23
108,342.8,0.0500,-73.58,-0.05
109,346.7,0.0500,-71.92,-6.44
110,350.8,0.0500,-71.28,12.55
111,354.8,0.0500,-72.99,7.89
112,358.9,0.0500,-74.59,-2.65
113,363.1,0.0500,-72.01,3.55
114,367.3,0.0500,-72.48,10.86
115,371.5,0.0500,-72.46,-6.80
116,375.8,0.0500,-72.70,7.25
117,380.2,0.0500,-72.27,3.66
118,384.6,0.0500,-71.56,6.18
119,389.0,0.0500,-71.31,6.13
120,393.6,0.0500,-71.58,6.50
121,398.1,0.0500,-71.36,3.52
122,402.7,0.0500,-71.06,7.25
123,407.4,0.0500,-70.42,1.08
124,412.1,0.0500,-72.12,4.65
125,416.9,0.0500,-72.46,6.71
126,421.7,0.0500,-71.47,14.36
127,426.6,0.0500,-73.73,11.91
128,431.5,0.0500,-70.96,-11.37
129,436.5,0.0500,-71.71,12.88
130,441.6,0.0500,-72.82,3.78
131,446.7,0.0500,-72.59,0.46
132,451.9,0.0500,-71.55,2.63
133,457.1,0.0500,-72.90,15.63
134,462.4,0.0500,-71.02,8.53
135,467.7,0.0500,-74.33,15.20
136,473.2,0.0500,-72.53,7.78
137,478.6,0.0500,-75.36,12.71
138,484.2,0.0500,-71.95,8.19
139,489.8,0.0500,-72.76,-1.22
140,495.5,0.0500,-70.62,12.17
141,501.2,0.0500,-72.41,18.11
142,507.0,0.0500,-74.59,2.69
143,512.9,0.0500,-72.05,2.77
144,518.8,0.0500,-73.59,9.29
145,524.8,0.0500,-73.60,9.76
146,530.9,0.0500,-72.67,7.95
147,537.0,0.0500,-71.58,10.72
148,543.3,0.0500,-72.50,11.18
149,549.5,0.0500,-73.77,7.72
150,555.9,0.0500,-71.45,11.36
151,562.3,0.0500,-72.53,15.86
152,568.9,0.0500,-73.92,7.50
153,575.4,0.0500,-73.75,10.25
154,582.1,0.0500,-74.90,17.36
155,588.8,0.0500,-71.65,10.88
156,595.7,0.0500,-74.23,26.49
157,602.6,0.0500,-72.49,9.71
158,609.5,0.0500,-71.98,21.98
159,616.6,0.0500,-71.39,21.06
160,623.7,0.0500,-72.24,-0.88
161,631.0,0.0500,-71.53,9.57
162,638.3,0.0500,-72.42,9.40
163,645.7,0.0500,-73.80,14.14
164,653.1,0.0500,-71.00,10.66
165,660.7,0.0500,-72.14,19.61
166,668.3,0.0500,-73.64,1.24
167,676.1,0.0500,-73.03,10.43
168,683.9,0.0500,-71.63,5.99
169,691.8,0.0500,-72.58,11.25
170,699.8,0.0500,-71.98,4.16
171,707.9,0.0500,-70.64,17.61
172,716.1,0.0500,-71.16,1.59
173,724.4,0.0500,-70.79,0.70
174,732.8,0.0500,-70.84,4.62
175,741.3,0.0500,-73.19,10.51
176,749.9,0.0500,-71.76,16.86
177,758.6,0.0500,-71.75,0.38
178,767.4,0.0500,-71.73,17.11
179,776.2,0.0500,-72.35,-1.74
180,785.2,0.0500,-72.00,8.74
181,794.3,0.0500,-71.84,11.25
182,803.5,0.0500,-72.32,3.87
183,812.8,0.0500,-73.10,3.08
184,822.2,0.0500,-72.89,24.45
185,831.8,0.0500,-71.23,11.78
186,841.4,0.0500,-71.96,5.90
187,851.1,0.0500,-72.80,7.26
188,861.0,0.0500,-76.39,3.91
189,871.0,0.0500,-73.62,15.10
190,881.0,0.0500,-72.23,-3.24
191,891.3,0.0500,-72.66,10.86
192,901.6,0.0500,-71.43,13.15
193,912.0,0.0500,-73.82,6.58
194,922.6,0.0500,-71.50,8.97
195,933.3,0.0500,-73.02,11.55
196,944.1,0.0500,-71.29,11.29
197,955.0,0.0500,-71.08,19.72
198,966.1,0.0500,-71.12,6.43
199,977.2,0.0500,-72.95,14.68
200,988.6,0.0500,-72.64,23.57
201,1000.0,0.0500,-72.94,7.99
202,1011.6,0.0500,-71.04,6.52
203,1023.3,0.0500,-70.61,10.06
204,1035.1,0.0500,-73.31,14.82
205,1047.1,0.0500,-74.13,-3.50
206,1059.3,0.0500,-71.27,6.49
207,1071.5,0.0500,-72.28,9.15
208,1083.9,0.0500,-72.94,4.22
209,1096.5,0.0500,-73.43,17.16
210,1109.2,0.0500,-74.44,9.11
211,1122.0,0.0500,-72.73,-2.48
212,1135.0,0.0500,-71.39,16.07
213,1148.2,0.0500,-70.60,9.40
214,1161.4,0.0500,-72.28,22.88
215,1174.9,0.0500,-72.38,7.51
216,1188.5,0.0500,-70.38,19.74
217,1202.3,0.0500,-71.02,13.16
218,1216.2,0.0500,-71.31,23.29
219,1230.3,0.0500,-71.04,12.43
220,1244.5,0.0500,-71.38,7.24
221,1258.9,0.0500,-72.02,12.49
222,1273.5,0.0500,-71.73,16.54
223,1288.2,0.0500,-73.42,23.55
224,1303.2,0.0500,-72.09,12.00
225,1318.3,0.0500,-72.78,27.34
226,1333.5,0.0500,-72.05,15.51
227,1349.0,0.0500,-72.01,11.68
228,1364.6,0.0500,-69.38,11.48
229,1380.4,0.0500,-71.10,11.67
230,1396.4,0.0500,-71.48,17.87
231,1412.5,0.0500,-71.51,13.82
232,1428.9,0.0500,-72.35,9.80
233,1445.4,0.0500,-70.06,21.34
234,1462.2,0.0500,-69.48,16.97
235,1479.1,0.0500,-72.89,14.35
236,1496.2,0.0500,-73.80,16.16
237,1513.6,0.0500,-72.88,16.08
238,1531.1,0.0500,-71.02,18.85
239,1548.8,0.0500,-69.97,20.68
240,1566.8,0.0500,-71.88,22.87
241,1584.9,0.0500,-69.79,9.15
242,1603.2,0.0500,-70.22,25.31
243,1621.8,0.0500,-69.70,17.90
244,1640.6,0.0500,-71.55,16.81
245,1659.6,0.0500,-72.16,15.31
246,1678.8,0.0500,-73.02,27.63
247,1698.2,0.0500,-72.44,21.84
248,1717.9,0.0500,-75.06,29.30
249,1737.8,0.0500,-69.86,19.37
250,1757.9,0.0500,-73.15,29.15
251,1778.3,0.0500,-70.34,10.84
252,1798.9,0.0500,-71.67,12.24
253,1819.7,0.0500,-71.75,6.39
254,1840.8,0.0500,-72.91,9.49
255,1862.1,0.0500,-70.95,17.52
256,1883.6,0.0500,-71.94,15.40
257,1905.5,0.0500,-69.48,17.81
258,1927.5,0.0500,-72.47,24.46
259,1949.8,0.0500,-72.84,20.91
260,1972.4,0.0500,-70.04,29.99
261,1995.3,0.0500,-72.08,14.42
262,2018.4,0.0500,-70.73,17.66
263,2041.7,0.0500,-70.94,14.32
264,2065.4,0.0500,-69.89,3.38
265,2089.3,0.0500,-71.55,19.72
266,2113.5,0.0500,-72.21,30.12
267,2138.0,0.0500,-71.91,35.15
268,2162.7,0.0500,-71.87,34.73
269,2187.8,0.0500,-69.81,1.57
270,2213.1,0.0500,-69.97,29.21
271,2238.7,0.0500,-70.70,18.40
272,2264.6,0.0500,-73.46,26.39
273,2290.9,0.0500,-71.29,24.23
274,2317.4,0.0500,-72.28,39.51
275,2344.2,0.0500,-72.33,39.80
276,2371.4,0.0500,-70.58,33.04
277,2398.8,0.0500,-70.04,20.79
278,2426.6,0.0500,-71.44,28.05
279,2454.7,0.0500,-70.39,19.55
280,2483.1,0.0500,-70.88,28.44
281,2511.9,0.0500,-68.67,29.36
282,2541.0,0.0500,-69.90,40.98
283,2570.4,0.0500,-70.43,20.42
284,2600.2,0.0500,-72.52,38.70
285,2630.3,0.0500,-71.77,25.39
286,2660.7,0.0500,-69.45,38.88
287,2691.5,0.0500,-70.56,25.41
288,2722.7,0.0500,-69.68,21.99
289,2754.2,0.0500,-71.67,25.46
290,2786.1,0.0500,-69.68,35.58
291,2818.4,0.0500,-70.37,24.23
292,2851.0,0.0500,-70.25,39.18
293,2884.0,0.0500,-69.57,18.08
294,2917.4,0.0500,-70.85,38.29
295,2951.2,0.0500,-70.62,34.62
296,2985.4,0.0500,-71.04,36.30
297,3020.0,0.0500,-69.20,19.76
298,3054.9,0.0500,-70.57,33.18
299,3090.3,0.0500,-70.50,19.53
300,3126.1,0.0500,-71.52,28.01
301,3162.3,0.0500,-70.80,27.33
302,3198.9,0.0500,-70.14,34.35
303,3235.9,0.0500,-70.98,35.26
304,3273.4,0.0500,-70.43,39.47
305,3311.3,0.0500,-71.17,36.01
306,3349.7,0.0500,-70.44,35.76
307,3388.4,0.0500,-71.10,23.67
308,3427.7,0.0500,-69.46,37.17
309,3467.4,0.0500,-70.04,25.85
310,3507.5,0.0500,-70.15,35.79
311,3548.1,0.0500,-69.59,38.41
312,3589.2,0.0500,-71.85,39.21
313,3630.8,0.0500,-69.75,40.35
314,3672.8,0.0500,-69.37,36.48
315,3715.4,0.0500,-69.57,43.88
316,3758.4,0.0500,-70.40,24.69
317,3801.9,0.0500,-70.18,43.60
318,3845.9,0.0500,-68.95,48.68
319,3890.5,0.0500,-69.98,40.34
320,3935.5,0.0500,-70.93,31.30
321,3981.1,0.0500,-69.80,26.38
322,4027.2,0.0500,-70.37,33.36
323,4073.8,0.0500,-69.61,46.60
324,4121.0,0.0500,-70.19,45.26
325,4168.7,0.0500,-70.28,40.73
326,4217.0,0.0500,-69.30,40.71
327,4265.8,0.0500,-69.51,51.58
328,4315.2,0.0500,-71.18,39.31
329,4365.2,0.0500,-69.21,37.32
330,4415.7,0.0500,-70.89,34.77
331,4466.8,0.0500,-69.30,41.23
332,4518.6,0.0500,-68.97,50.83
333,4570.9,0.0500,-69.08,51.11
334,4623.8,0.0500,-69.99,38.81
335,4677.4,0.0500,-68.32,44.46
336,4731.5,0.0500,-68.94,47.73
337,4786.3,0.0500,-68.61,54.46
338,4841.7,0.0500,-69.45,44.21
339,4897.8,0.0500,-68.38,46.35
340,4954.5,0.0500,-69.11,47.93
341,5011.9,0.0500,-68.59,45.01
342,5069.9,0.0500,-68.70,50.74
343,5128.6,0.0500,-68.91,43.40
344,5188.0,0.0500,-69.09,55.60
345,5248.1,0.0500,-69.26,51.19
346,5308.8,0.0500,-69.14,46.57
347,5370.3,0.0500,-68.09,47.77
348,5432.5,0.0500,-68.80,47.08
349,5495.4,0.0500,-68.00,53.08
350,5559.0,0.0500,-68.86,46.45
351,5623.4,0.0500,-69.06,42.59
352,5688.5,0.0500,-68.96,44.00
353,5754.4,0.0500,-68.09,54.86
354,5821.0,0.0500,-68.21,49.32
355,5888.4,0.0500,-69.04,46.91
356,5956.6,0.0500,-68.22,48.96
357,6025.6,0.0500,-68.07,54.14
358,6095.4,0.0500,-67.63,62.21
359,6166.0,0.0500,-67.62,54.21
360,6237.3,0.0500,-67.43,57.44
361,6309.6,0.0500,-68.33,63.52
362,6382.6,0.0500,-68.07,52.98
363,6456.5,0.0500,-68.82,54.82
364,6531.3,0.0500,-67.60,47.43
365,6606.9,0.0500,-67.72,56.47
366,6683.4,0.0500,-67.14,52.05
367,6760.8,0.0500,-68.22,52.56
368,6839.1,0.0500,-67.39,51.51
369,6918.3,0.0500,-67.20,54.07
370,6998.4,0.0500,-67.24,55.17
371,7079.5,0.0500,-66.43,57.21
372,7161.4,0.0500,-66.19,65.51
373,7244.4,0.0500,-66.17,61.64
374,7328.2,0.0500,-67.06,53.54
375,7413.1,0.0500,-67.88,61.68
376,7498.9,0.0500,-67.33,62.90
377,7585.8,0.0500,-66.74,56.89
378,7673.6,0.0500,-67.61,58.89
379,7762.5,0.0500,-66.66,61.55
380,7852.4,0.0500,-67.56,48.02
381,7943.3,0.0500,-66.34,61.30
382,8035.3,0.0500,-66.54,55.91
383,8128.3,0.0500,-66.51,62.64
384,8222.4,0.0500,-65.93,53.13
385,8317.6,0.0500,-66.32,59.38
386,8414.0,0.0500,-66.40,60.52
387,8511.4,0.0500,-66.69,58.35
388,8609.9,0.0500,-66.37,63.47
389,8709.6,0.0500,-65.99,57.37
390,8810.5,0.0500,-66.50,61.68
391,8912.5,0.0500,-66.05,64.97
392,9015.7,0.0500,-65.34,58.57
393,9120.1,0.0500,-65.25,61.72
394,9225.7,0.0500,-65.36,65.68
395,9332.5,0.0500,-65.95,64.07
396,9440.6,0.0500,-64.86,55.95
397,9549.9,0.0500,-65.22,62.63
398,9660.5,0.0500,-65.49,62.75
399,9772.4,0.0500,-65.46,67.54
400,9885.5,0.0500,-65.33,58.02
401,10000.0,0.0500,-64.44,63.60
402,10115.8,0.0500,-64.81,64.74
403,10232.9,0.0500,-65.87,67.54
404,10351.4,0.0500,-64.94,64.62
405,10471.3,0.0500,-64.68,57.92
406,10592.5,0.0500,-65.11,65.41
407,10715.2,0.0500,-64.75,63.74
408,10839.3,0.0500,-65.10,64.74
409,10964.8,0.0500,-64.01,63.49
410,11091.7,0.0500,-63.59,63.08
411,11220.2,0.0500,-63.73,69.05
412,11350.1,0.0500,-63.93,66.01
413,11481.5,0.0500,-63.73,68.08
414,11614.5,0.0500,-63.48,65.74
415,11749.0,0.0500,-63.56,63.34
416,11885.0,0.0500,-64.35,70.26
417,12022.6,0.0500,-63.46,65.74
418,12161.9,0.0500,-64.09,70.86
419,12302.7,0.0500,-63.95,63.55
420,12445.1,0.0500,-63.82,71.79
421,12589.3,0.0500,-63.31,67.02
422,12735.0,0.0500,-62.88,69.85
423,12882.5,0.0500,-62.79,69.91
424,13031.7,0.0500,-63.26,69.06
425,13182.6,0.0500,-63.49,69.26
426,13335.2,0.0500,-63.57,75.23
427,13489.6,0.0500,-63.07,68.84
428,13645.8,0.0500,-62.35,71.70
429,13803.8,0.0500,-62.66,68.21
430,13963.7,0.0500,-62.67,74.14
431,14125.4,0.0500,-62.00,69.53
432,14288.9,0.0500,-61.95,69.36
433,14454.4,0.0500,-62.45,69.99
434,14621.8,0.0500,-61.91,76.61
435,14791.1,0.0500,-62.39,73.23
436,14962.4,0.0500,-61.47,69.20
437,15135.6,0.0500,-61.40,69.07
438,15310.9,0.0500,-61.70,73.01
439,15488.2,0.0500,-60.97,70.27
440,15667.5,0.0500,-61.74,72.27
441,15848.9,0.0500,-61.24,75.48
442,16032.5,0.0500,-61.46,70.58
443,16218.1,0.0500,-61.60,71.04
444,16405.9,0.0500,-61.09,76.46
445,16595.9,0.0500,-61.13,73.12
446,16788.0,0.0500,-61.16,72.45
447,16982.4,0.0500,-61.35,72.33
448,17179.1,0.0500,-60.67,71.44
449,17378.0,0.0500,-61.45,76.50
450,17579.2,0.0500,-60.49,71.31
451,17782.8,0.0500,-60.56,74.79
452,17988.7,0.0500,-60.28,74.79
453,18197.0,0.0500,-60.73,74.07
454,18407.7,0.0500,-60.72,77.00
455,18620.9,0.0500,-60.71,76.31
456,18836.5,0.0500,-60.36,76.35
457,19054.6,0.0500,-60.00,78.46
458,19275.2,0.0500,-59.44,74.72
459,19498.4,0.0500,-59.74,77.57
460,19724.2,0.0500,-60.17,72.61
461,19952.6,0.0500,-60.08,76.53
462,20183.7,0.0500,-59.74,77.16
463,20417.4,0.0500,-59.43,75.82
464,20653.8,0.0500,-59.03,79.17
465,20893.0,0.0500,-59.43,77.91
466,21134.9,0.0500,-59.20,75.28
467,21379.6,0.0500,-58.95,76.89
468,21627.2,0.0500,-59.33,76.68
469,21877.6,0.0500,-58.62,78.69
470,22130.9,0.0500,-59.18,79.20
471,22387.2,0.0500,-58.52,80.31
472,22646.4,0.0500,-58.89,79.06
473,22908.7,0.0500,-58.53,77.32
474,23173.9,0.0500,-58.62,75.71
475,23442.3,0.0500,-58.06,80.01
476,23713.7,0.0500,-58.27,77.52
477,23988.3,0.0500,-58.27,78.93
478,24266.1,0.0500,-57.98,79.20
479,24547.1,0.0500,-58.30,80.57
480,24831.3,0.0500,-57.79,79.61
481,25118.9,0.0500,-57.88,79.53
482,25409.7,0.0500,-57.78,79.63
483,25704.0,0.0500,-57.34,79.78
484,26001.6,0.0500,-57.45,80.37
485,26302.7,0.0500,-57.17,81.92
486,26607.3,0.0500,-57.11,79.54
487,26915.3,0.0500,-56.94,79.88
488,27227.0,0.0500,-57.06,81.32
489,27542.3,0.0500,-57.13,79.64
490,27861.2,0.0500,-56.83,80.37
491,28183.8,0.0500,-56.59,80.67
492,28510.2,0.0500,-56.60,79.63
493,28840.3,0.0500,-56.68,80.36
494,29174.3,0.0500,-56.42,78.17
495,29512.1,0.0500,-56.05,80.93
496,29853.8,0.0500,-56.44,81.56
497,30199.5,0.0500,-56.06,82.81
498,30549.2,0.0500,-56.15,80.59
499,30903.0,0.0500,-55.76,81.32
500,31260.8,0.0500,-55.79,83.49
501,31622.8,0.0500,-55.49,82.56
502,31989.0,0.0500,-55.59,80.09
503,32359.4,0.0500,-55.73,81.31
504,32734.1,0.0500,-55.63,81.61
505,33113.1,0.0500,-55.55,81.63
506,33496.5,0.0500,-55.34,80.14
507,33884.4,0.0500,-54.73,81.46
508,34276.8,0.0500,-55.32,83.23
509,34673.7,0.0500,-54.97,82.49
510,35075.2,0.0500,-54.98,85.86
511,35481.3,0.0500,-54.84,87.94
512,35892.2,0.0500,-54.55,84.09
513,36307.8,0.0500,-54.22,78.78
514,36728.2,0.0500,-54.47,81.16
515,37153.5,0.0500,-54.26,83.32
516,37583.7,0.0500,-54.38,84.02
517,38018.9,0.0500,-53.79,82.67
518,38459.2,0.0500,-53.90,82.78
519,38904.5,0.0500,-54.03,82.79
520,39355.0,0.0500,-53.65,84.63
521,39810.7,0.0500,-53.72,83.92
522,40271.7,0.0500,-54.12,86.61
523,40738.0,0.0500,-53.64,82.81
524,41209.8,0.0500,-52.85,80.29
525,41686.9,0.0500,-53.17,85.89
526,42169.7,0.0500,-53.30,83.49
527,42658.0,0.0500,-53.17,83.95
528,43151.9,0.0500,-53.27,84.12
529,43651.6,0.0500,-52.90,86.08
530,44157.0,0.0500,-52.60,84.52
531,44668.4,0.0500,-52.99,83.39
532,45185.6,0.0500,-51.93,86.46
533,45708.8,0.0500,-52.28,86.92
534,46238.1,0.0500,-52.56,87.82
535,46773.5,0.0500,-52.17,80.95
536,47315.1,0.0500,-52.20,83.83
537,47863.0,0.0500,-51.92,86.26
538,48417.2,0.0500,-51.64,86.70
539,48977.9,0.0500,-51.52,87.67
540,49545.0,0.0500,-52.13,82.38
541,50118.7,0.0500,-51.37,85.51
542,50699.1,0.0500,-51.22,84.34
543,51286.1,0.0500,-50.88,86.33
544,51880.0,0.0500,-51.09,86.20
545,52480.7,0.0500,-51.03,81.76
546,53088.4,0.0500,-50.93,82.20
547,53703.2,0.0500,-50.82,83.39
548,54325.0,0.0500,-50.85,84.74
549,54954.1,0.0500,-50.91,83.06
550,55590.4,0.0500,-50.62,83.70
551,56234.1,0.0500,-49.65,81.72
552,56885.3,0.0500,-50.37,81.94
553,57544.0,0.0500,-50.16,84.83
554,58210.3,0.0500,-50.13,81.92
555,58884.4,0.0500,-49.98,83.64
556,59566.2,0.0500,-50.21,83.78
557,60256.0,0.0500,-49.88,83.73
558,60953.7,0.0500,-50.09,83.38
559,61659.5,0.0500,-49.86,82.12
560,62373.5,0.0500,-49.33,81.18
561,63095.7,0.0500,-49.58,84.03
562,63826.3,0.0500,-49.29,87.30
563,64565.4,0.0500,-49.53,84.13
564,65313.1,0.0500,-49.50,82.14
565,66069.3,0.0500,-49.13,82.71
566,66834.4,0.0500,-49.18,82.53
567,67608.3,0.0500,-49.45,84.94
568,68391.2,0.0500,-49.15,84.32
569,69183.1,0.0500,-49.11,85.52
570,69984.2,0.0500,-48.94,84.28
571,70794.6,0.0500,-48.24,86.56
572,71614.3,0.0500,-48.53,83.49
573,72443.6,0.0500,-48.54,84.27
574,73282.5,0.0500,-48.24,84.76
575,74131.0,0.0500,-48.22,83.18
576,74989.4,0.0500,-48.30,85.44
577,75857.8,0.0500,-48.25,84.33
578,76736.1,0.0500,-48.13,85.33
579,77624.7,0.0500,-47.85,84.94
580,78523.6,0.0500,-47.88,84.21
581,79432.8,0.0500,-47.65,83.79
582,80352.6,0.0500,-47.51,83.19
583,81283.1,0.0500,-47.58,84.88
584,82224.3,0.0500,-47.49,84.72
585,83176.4,0.0500,-47.35,85.94
586,84139.5,0.0500,-47.26,85.06
587,85113.8,0.0500,-47.25,85.02
588,86099.4,0.0500,-46.83,84.46
589,87096.4,0.0500,-46.88,84.84
590,88104.9,0.0500,-46.74,84.85
591,89125.1,0.0500,-46.77,85.34
592,90157.1,0.0500,-46.63,85.59
593,91201.1,0.0500,-46.41,85.87
594,92257.1,0.0500,-46.44,84.58
595,93325.4,0.0500,-46.19,86.15
596,94406.1,0.0500,-46.29,84.33
597,95499.3,0.0500,-46.13,84.88
598,96605.1,0.0500,-46.01,83.80
599,97723.7,0.0500,-45.96,85.48
600,98855.3,0.0500,-45.86,85.88
601,100000.0,0.0500,-45.81,84.79
602,101157.9,0.0500,-45.77,85.07
603,102329.3,0.0500,-45.64,85.90
604,103514.2,0.0500,-45.30,84.57
605,104712.9,0.0500,-45.21,84.58
606,105925.4,0.0500,-45.19,85.98
607,107151.9,0.0500,-45.10,84.97
608,108392.7,0.0500,-45.07,84.25
609,109647.8,0.0500,-44.77,85.02
610,110917.5,0.0500,-44.90,86.18
611,112201.8,0.0500,-44.78,84.25
612,113501.1,0.0500,-44.57,86.34
613,114815.4,0.0500,-44.62,85.72
614,116144.9,0.0500,-44.36,85.34
615,117489.8,0.0500,-44.41,85.14
616,118850.2,0.0500,-44.27,85.20
617,120226.4,0.0500,-44.03,85.28
618,121618.6,0.0500,-44.13,85.81
619,123026.9,0.0500,-43.91,85.73
620,124451.5,0.0500,-44.17,84.82
621,125892.5,0.0500,-43.86,87.27
622,127350.3,0.0500,-43.84,83.80
623,128825.0,0.0500,-43.55,85.51
624,130316.7,0.0500,-43.38,85.40
625,131825.7,0.0500,-43.28,86.29
626,133352.1,0.0500,-43.12,84.79
627,134896.3,0.0500,-43.36,87.36
628,136458.3,0.0500,-42.93,86.08
629,138038.4,0.0500,-42.98,85.42
630,139636.8,0.0500,-42.84,86.44
631,141253.8,0.0500,-42.64,85.62
632,142889.4,0.0500,-42.69,85.68
633,144544.0,0.0500,-42.48,84.50
634,146217.7,0.0500,-42.41,85.89
635,147910.8,0.0500,-42.33,85.59
636,149623.6,0.0500,-42.31,85.61
637,151356.1,0.0500,-42.13,85.15
638,153108.7,0.0500,-41.86,85.03
639,154881.7,0.0500,-41.95,85.59
640,156675.1,0.0500,-41.76,84.21
641,158489.3,0.0500,-41.72,85.95
642,160324.5,0.0500,-41.43,84.88
643,162181.0,0.0500,-41.24,86.48
644,164059.0,0.0500,-41.41,84.25
645,165958.7,0.0500,-41.33,85.82
646,167880.4,0.0500,-41.25,85.30
