#, Frequency (Hz), Amplitude (Vpp), Gain (dB), Phase (°)
1,100.0,0.0500,-49.36,49.93
2,101.2,0.0500,-49.43,49.66
3,102.3,0.0500,-49.68,49.41
4,103.5,0.0500,-49.30,49.25
5,104.7,0.0500,-49.38,50.13
6,105.9,0.0500,-49.41,49.32
7,107.2,0.0500,-48.95,50.58
8,108.4,0.0500,-49.08,50.25
9,109.6,0.0500,-49.09,49.82
10,110.9,0.0500,-49.17,49.64
11,112.2,0.0500,-49.05,49.16
12,113.5,0.0500,-48.96,50.11
13,114.8,0.0500,-48.87,50.21
14,116.1,0.0500,-48.76,49.41
15,117.5,0.0500,-48.83,49.76
16,118.9,0.0500,-48.70,49.61
17,120.2,0.0500,-48.77,48.70
18,121.6,0.0500,-48.77,49.28
19,123.0,0.0500,-48.61,50.43
20,124.5,0.0500,-48.38,48.76
21,125.9,0.0500,-48.44,49.37
22,127.4,0.0500,-48.41,49.93
23,128.8,0.0500,-48.32,49.33
24,130.3,0.0500,-48.03,48.43
25,131.8,0.0500,-48.18,49.04
26,133.4,0.0500,-48.04,49.45
27,134.9,0.0500,-48.10,49.44
28,136.5,0.0500,-48.18,50.08
29,138.0,0.0500,-47.92,50.41
30,139.6,0.0500,-47.99,48.53
31,141.3,0.0500,-47.93,49.45
32,142.9,0.0500,-47.96,49.86
33,144.5,0.0500,-47.79,48.80
34,146.2,0.0500,-47.54,49.15
35,147.9,0.0500,-47.65,48.71
36,149.6,0.0500,-47.35,49.38
37,151.4,0.0500,-47.59,49.61
38,153.1,0.0500,-47.54,49.67
39,154.9,0.0500,-47.49,49.90
40,156.7,0.0500,-47.65,49.33
41,158.5,0.0500,-47.40,49.57
42,160.3,0.0500,-47.23,48.96
43,162.2,0.0500,-47.21,49.78
44,164.1,0.0500,-47.19,49.01
45,166.0,0.0500,-47.13,49.99
46,167.9,0.0500,-47.09,49.40
47,169.8,0.0500,-47.05,50.51
48,171.8,0.0500,-47.16,50.50
49,173.8,0.0500,-47.00,50.22
50,175.8,0.0500,-46.82,50.77
51,177.8,0.0500,-46.88,48.79
52,179.9,0.0500,-46.73,50.98
53,182.0,0.0500,-46.69,49.68
54,184.1,0.0500,-46.70,49.01
55,186.2,0.0500,-46.56,50.35
56,188.4,0.0500,-46.66,50.37
57,190.5,0.0500,-46.43,50.93
58,192.8,0.0500,-46.47,50.58
59,195.0,0.0500,-46.45,49.96
60,197.2,0.0500,-46.36,49.91
61,199.5,0.0500,-46.47,51.25
62,201.8,0.0500,-46.37,49.72
63,204.2,0.0500,-46.16,50.78
64,206.5,0.0500,-46.24,49.98
65,208.9,0.0500,-46.06,51.13
66,211.3,0.0500,-46.00,50.24
67,213.8,0.0500,-46.01,49.73
68,216.3,0.0500,-46.11,49.10
69,218.8,0.0500,-45.88,49.93
70,221.3,0.0500,-45.81,50.19
71,223.9,0.0500,-45.70,50.21
72,226.5,0.0500,-45.72,49.95
73,229.1,0.0500,-45.71,50.20
74,231.7,0.0500,-45.55,49.54
75,234.4,0.0500,-45.60,50.36
76,237.1,0.0500,-45.60,49.58
77,239.9,0.0500,-45.49,50.68
78,242.7,0.0500,-45.35,50.23
79,245.5,0.0500,-45.41,49.90
80,248.3,0.0500,-45.26,50.21
81,251.2,0.0500,-45.20,49.96
82,254.1,0.0500,-45.14,50.72
83,257.0,0.0500,-44.98,50.09
84,260.0,0.0500,-45.11,50.40
85,263.0,0.0500,-45.05,50.34
86,266.1,0.0500,-44.97,49.82
87,269.2,0.0500,-44.98,50.46
88,272.3,0.0500,-44.74,49.63
89,275.4,0.0500,-44.80,49.41
90,278.6,0.0500,-44.71,50.43
91,281.8,0.0500,-44.69,50.24
92,285.1,0.0500,-44.76,50.56
93,288.4,0.0500,-44.52,50.34
94,291.7,0.0500,-44.51,50.41
95,295.1,0.0500,-44.41,50.23
96,298.5,0.0500,-44.38,51.44
97,302.0,0.0500,-44.42,50.70
98,305.5,0.0500,-44.24,50.26
99,309.0,0.0500,-44.17,50.39
100,312.6,0.0500,-44.14,51.17
101,316.2,0.0500,-44.18,50.51
102,319.9,0.0500,-44.06,51.11
103,323.6,0.0500,-43.99,51.39
104,327.3,0.0500,-43.89,51.20
105,331.1,0.0500,-43.98,50.91
106,335.0,0.0500,-43.91,51.01
107,338.8,0.0500,-43.87,51.44
108,342.8,0.0500,-43.73,51.07
109,346.7,0.0500,-43.61,50.81
110,350.8,0.0500,-43.70,51.06
111,354.8,0.0500,-43.56,51.24
112,358.9,0.0500,-43.48,51.53
113,363.1,0.0500,-43.43,51.26
114,367.3,0.0500,-43.44,50.73
115,371.5,0.0500,-43.34,51.59
116,375.8,0.0500,-43.22,51.72
117,380.2,0.0500,-43.27,51.62
118,384.6,0.0500,-43.18,51.70
119,389.0,0.0500,-43.11,51.52
120,393.6,0.0500,-43.13,51.14
121,398.1,0.0500,-43.02,51.74
122,402.7,0.0500,-42.98,51.83
123,407.4,0.0500,-42.96,51.96
124,412.1,0.0500,-42.90,51.48
125,416.9,0.0500,-42.78,51.56
126,421.7,0.0500,-42.78,52.15
127,426.6,0.0500,-42.69,51.70
128,431.5,0.0500,-42.60,51.83
129,436.5,0.0500,-42.62,51.75
130,441.6,0.0500,-42.52,52.04
131,446.7,0.0500,-42.46,51.28
132,451.9,0.0500,-42.53,51.82
133,457.1,0.0500,-42.38,52.47
134,462.4,0.0500,-42.32,52.41
135,467.7,0.0500,-42.21,51.72
136,473.2,0.0500,-42.11,52.53
137,478.6,0.0500,-42.08,52.48
138,484.2,0.0500,-42.03,52.27
139,489.8,0.0500,-41.99,52.39
140,495.5,0.0500,-41.93,52.66
141,501.2,0.0500,-41.85,53.02
142,507.0,0.0500,-41.80,52.63
143,512.9,0.0500,-41.76,52.89
144,518.8,0.0500,-41.66,52.42
145,524.8,0.0500,-41.76,52.86
146,530.9,0.0500,-41.57,53.09
147,537.0,0.0500,-41.52,53.01
148,543.3,0.0500,-41.59,53.20
149,549.5,0.0500,-41.38,52.51
150,555.9,0.0500,-41.32,53.23
151,562.3,0.0500,-41.35,52.88
152,568.9,0.0500,-41.21,53.29
153,575.4,0.0500,-41.19,52.89
154,582.1,0.0500,-41.09,53.12
155,588.8,0.0500,-41.02,52.81
156,595.7,0.0500,-41.01,52.98
157,602.6,0.0500,-40.93,52.11
158,609.5,0.0500,-40.83,53.73
159,616.6,0.0500,-40.90,53.24
160,623.7,0.0500,-40.70,53.59
161,631.0,0.0500,-40.68,53.50
162,638.3,0.0500,-40.62,53.73
163,645.7,0.0500,-40.61,53.64
164,653.1,0.0500,-40.54,53.55
165,660.7,0.0500,-40.46,53.51
166,668.3,0.0500,-40.41,53.58
167,676.1,0.0500,-40.32,53.98
168,683.9,0.0500,-40.29,54.05
169,691.8,0.0500,-40.27,53.54
170,699.8,0.0500,-40.20,53.71
171,707.9,0.0500,-40.18,53.69
172,716.1,0.0500,-39.99,52.84
173,724.4,0.0500,-40.02,53.98
174,732.8,0.0500,-39.92,54.18
175,741.3,0.0500,-39.85,53.96
176,749.9,0.0500,-39.89,54.09
177,758.6,0.0500,-39.71,53.85
178,767.4,0.0500,-39.65,53.93
179,776.2,0.0500,-39.60,54.96
180,785.2,0.0500,-39.52,53.86
181,794.3,0.0500,-39.47,54.43
182,803.5,0.0500,-39.52,54.49
183,812.8,0.0500,-39.32,54.32
184,822.2,0.0500,-39.29,54.20
185,831.8,0.0500,-39.23,54.32
186,841.4,0.0500,-39.18,54.71
187,851.1,0.0500,-39.10,54.69
188,861.0,0.0500,-39.04,54.65
189,871.0,0.0500,-39.02,54.64
190,881.0,0.0500,-38.99,54.76
191,891.3,0.0500,-38.85,54.93
192,901.6,0.0500,-38.79,54.76
193,912.0,0.0500,-38.73,55.12
194,922.6,0.0500,-38.66,55.36
195,933.3,0.0500,-38.65,55.07
196,944.1,0.0500,-38.51,54.95
197,955.0,0.0500,-38.59,55.12
198,966.1,0.0500,-38.43,55.06
199,977.2,0.0500,-38.31,55.38
200,988.6,0.0500,-38.33,55.29
201,1000.0,0.0500,-38.26,55.61
202,1011.6,0.0500,-38.16,55.38
203,1023.3,0.0500,-38.11,55.16
204,1035.1,0.0500,-38.06,55.48
205,1047.1,0.0500,-37.99,55.40
206,1059.3,0.0500,-37.90,55.84
207,1071.5,0.0500,-37.85,55.28
208,1083.9,0.0500,-37.78,55.63
209,1096.5,0.0500,-37.73,55.86
210,1109.2,0.0500,-37.59,55.37
211,1122.0,0.0500,-37.56,56.09
212,1135.0,0.0500,-37.58,55.60
213,1148.2,0.0500,-37.50,55.54
214,1161.4,0.0500,-37.38,55.54
215,1174.9,0.0500,-37.35,55.40
216,1188.5,0.0500,-37.27,56.08
217,1202.3,0.0500,-37.23,55.67
218,1216.2,0.0500,-37.19,56.01
219,1230.3,0.0500,-37.05,56.22
220,1244.5,0.0500,-37.01,56.16
221,1258.9,0.0500,-36.97,55.95
222,1273.5,0.0500,-36.92,56.20
223,1288.2,0.0500,-36.85,56.05
224,1303.2,0.0500,-36.74,56.05
225,1318.3,0.0500,-36.73,56.16
226,1333.5,0.0500,-36.67,55.92
227,1349.0,0.0500,-36.58,56.20
228,1364.6,0.0500,-36.56,56.38
229,1380.4,0.0500,-36.51,56.33
230,1396.4,0.0500,-36.33,56.23
231,1412.5,0.0500,-36.38,55.99
232,1428.9,0.0500,-36.25,56.68
233,1445.4,0.0500,-36.18,56.35
234,1462.2,0.0500,-36.11,56.33
235,1479.1,0.0500,-36.07,56.68
236,1496.2,0.0500,-35.99,56.55
237,1513.6,0.0500,-35.91,56.60
238,1531.1,0.0500,-35.86,56.83
239,1548.8,0.0500,-35.77,56.94
240,1566.8,0.0500,-35.76,56.69
241,1584.9,0.0500,-35.70,56.88
242,1603.2,0.0500,-35.62,56.44
243,1621.8,0.0500,-35.56,56.77
244,1640.6,0.0500,-35.48,57.29
245,1659.6,0.0500,-35.42,57.62
246,1678.8,0.0500,-35.41,57.21
247,1698.2,0.0500,-35.29,56.74
248,1717.9,0.0500,-35.24,56.60
249,1737.8,0.0500,-35.13,56.58
250,1757.9,0.0500,-35.15,56.94
251,1778.3,0.0500,-35.06,57.46
252,1798.9,0.0500,-34.96,56.96
253,1819.7,0.0500,-34.88,56.42
254,1840.8,0.0500,-34.91,57.01
255,1862.1,0.0500,-34.72,57.45
256,1883.6,0.0500,-34.69,57.03
257,1905.5,0.0500,-34.60,56.90
258,1927.5,0.0500,-34.61,57.30
259,1949.8,0.0500,-34.52,57.04
260,1972.4,0.0500,-34.43,57.25
261,1995.3,0.0500,-34.38,57.27
262,2018.4,0.0500,-34.27,57.58
263,2041.7,0.0500,-34.19,57.23
264,2065.4,0.0500,-34.16,57.26
265,2089.3,0.0500,-34.07,57.33
266,2113.5,0.0500,-34.02,57.22
267,2138.0,0.0500,-33.99,57.63
268,2162.7,0.0500,-33.86,57.38
269,2187.8,0.0500,-33.82,57.60
270,2213.1,0.0500,-33.78,57.56
271,2238.7,0.0500,-33.78,57.66
272,2264.6,0.0500,-33.63,57.62
273,2290.9,0.0500,-33.56,57.73
274,2317.4,0.0500,-33.45,57.94
275,2344.2,0.0500,-33.40,57.73
276,2371.4,0.0500,-33.34,58.09
277,2398.8,0.0500,-33.28,57.88
278,2426.6,0.0500,-33.17,57.52
279,2454.7,0.0500,-33.14,57.92
280,2483.1,0.0500,-33.11,57.88
281,2511.9,0.0500,-33.02,57.94
282,2541.0,0.0500,-32.95,57.75
283,2570.4,0.0500,-32.90,57.97
284,2600.2,0.0500,-32.81,58.17
285,2630.3,0.0500,-32.75,57.97
286,2660.7,0.0500,-32.70,57.98
287,2691.5,0.0500,-32.63,57.95
288,2722.7,0.0500,-32.56,57.71
289,2754.2,0.0500,-32.50,57.94
290,2786.1,0.0500,-32.40,58.03
291,2818.4,0.0500,-32.29,58.08
292,2851.0,0.0500,-32.25,58.48
293,2884.0,0.0500,-32.22,57.95
294,2917.4,0.0500,-32.18,58.15
295,2951.2,0.0500,-32.10,58.19
296,2985.4,0.0500,-32.04,58.21
297,3020.0,0.0500,-31.95,58.21
298,3054.9,0.0500,-31.88,58.08
299,3090.3,0.0500,-31.83,58.15
300,3126.1,0.0500,-31.70,58.25
301,3162.3,0.0500,-31.73,58.21
302,3198.9,0.0500,-31.60,58.27
303,3235.9,0.0500,-31.53,58.32
304,3273.4,0.0500,-31.54,58.21
305,3311.3,0.0500,-31.36,58.21
306,3349.7,0.0500,-31.31,58.36
307,3388.4,0.0500,-31.27,58.21
308,3427.7,0.0500,-31.29,58.68
309,3467.4,0.0500,-31.11,58.03
310,3507.5,0.0500,-31.05,58.39
311,3548.1,0.0500,-30.98,58.42
312,3589.2,0.0500,-30.89,58.79
313,3630.8,0.0500,-30.86,58.09
314,3672.8,0.0500,-30.84,58.22
315,3715.4,0.0500,-30.69,58.33
316,3758.4,0.0500,-30.66,58.30
317,3801.9,0.0500,-30.53,58.49
318,3845.9,0.0500,-30.46,58.44
319,3890.5,0.0500,-30.43,58.34
320,3935.5,0.0500,-30.32,58.46
321,3981.1,0.0500,-30.26,58.52
322,4027.2,0.0500,-30.32,58.42
323,4073.8,0.0500,-30.18,58.49
324,4121.0,0.0500,-30.07,58.28
325,4168.7,0.0500,-30.04,58.37
326,4217.0,0.0500,-29.96,58.55
327,4265.8,0.0500,-29.88,58.40
328,4315.2,0.0500,-29.80,58.36
329,4365.2,0.0500,-29.72,58.44
330,4415.7,0.0500,-29.69,58.39
331,4466.8,0.0500,-29.60,58.53
332,4518.6,0.0500,-29.52,58.45
333,4570.9,0.0500,-29.49,58.57
334,4623.8,0.0500,-29.37,58.31
335,4677.4,0.0500,-29.32,58.62
336,4731.5,0.0500,-29.32,58.50
337,4786.3,0.0500,-29.17,58.43
338,4841.7,0.0500,-29.09,58.41
339,4897.8,0.0500,-29.06,58.44
340,4954.5,0.0500,-28.95,58.39
341,5011.9,0.0500,-28.89,58.42
342,5069.9,0.0500,-28.83,58.31
343,5128.6,0.0500,-28.78,58.34
344,5188.0,0.0500,-28.69,58.41
345,5248.1,0.0500,-28.59,58.35
346,5308.8,0.0500,-28.54,58.47
347,5370.3,0.0500,-28.50,58.40
348,5432.5,0.0500,-28.40,58.18
349,5495.4,0.0500,-28.32,58.54
350,5559.0,0.0500,-28.26,58.37
351,5623.4,0.0500,-28.20,58.39
352,5688.5,0.0500,-28.13,58.25
353,5754.4,0.0500,-28.08,58.32
354,5821.0,0.0500,-27.98,58.28
355,5888.4,0.0500,-27.91,58.24
356,5956.6,0.0500,-27.86,58.26
357,6025.6,0.0500,-27.78,58.22
358,6095.4,0.0500,-27.74,58.17
359,6166.0,0.0500,-27.64,58.08
360,6237.3,0.0500,-27.58,58.21
361,6309.6,0.0500,-27.50,58.22
362,6382.6,0.0500,-27.43,58.13
363,6456.5,0.0500,-27.36,58.18
364,6531.3,0.0500,-27.29,58.18
365,6606.9,0.0500,-27.21,58.22
366,6683.4,0.0500,-27.13,58.07
367,6760.8,0.0500,-27.10,57.98
368,6839.1,0.0500,-27.01,58.05
369,6918.3,0.0500,-26.95,57.77
370,6998.4,0.0500,-26.87,57.96
371,7079.5,0.0500,-26.79,57.97
372,7161.4,0.0500,-26.74,57.71
373,7244.4,0.0500,-26.66,57.94
374,7328.2,0.0500,-26.57,57.95
375,7413.1,0.0500,-26.55,57.86
376,7498.9,0.0500,-26.44,57.76
377,7585.8,0.0500,-26.38,57.71
378,7673.6,0.0500,-26.28,57.83
379,7762.5,0.0500,-26.22,57.69
380,7852.4,0.0500,-26.13,57.72
381,7943.3,0.0500,-26.08,57.68
382,8035.3,0.0500,-26.02,57.58
383,8128.3,0.0500,-25.96,57.61
384,8222.4,0.0500,-25.87,57.55
385,8317.6,0.0500,-25.82,57.55
386,8414.0,0.0500,-25.73,57.54
387,8511.4,0.0500,-25.67,57.50
388,8609.9,0.0500,-25.58,57.40
389,8709.6,0.0500,-25.52,57.30
390,8810.5,0.0500,-25.44,57.38
391,8912.5,0.0500,-25.38,57.26
392,9015.7,0.0500,-25.32,57.16
393,9120.1,0.0500,-25.24,57.19
394,9225.7,0.0500,-25.18,57.09
395,9332.5,0.0500,-25.19,57.07
396,9440.6,0.0500,-25.02,56.98
397,9549.9,0.0500,-24.96,56.96
398,9660.5,0.0500,-24.88,56.95
399,9772.4,0.0500,-24.79,56.92
400,9885.5,0.0500,-24.73,56.76
401,10000.0,0.0500,-24.69,56.75
402,10115.8,0.0500,-24.62,56.80
403,10232.9,0.0500,-24.57,56.65
404,10351.4,0.0500,-24.47,56.69
405,10471.3,0.0500,-24.39,56.57
406,10592.5,0.0500,-24.34,56.53
407,10715.2,0.0500,-24.25,56.48
408,10839.3,0.0500,-24.18,56.41
409,10964.8,0.0500,-24.12,56.36
410,11091.7,0.0500,-24.05,56.24
411,11220.2,0.0500,-23.98,56.25
412,11350.1,0.0500,-23.91,56.23
413,11481.5,0.0500,-23.82,56.10
414,11614.5,0.0500,-23.77,56.07
415,11749.0,0.0500,-23.70,55.95
416,11885.0,0.0500,-23.64,55.89
417,12022.6,0.0500,-23.55,55.84
418,12161.9,0.0500,-23.48,55.78
419,12302.7,0.0500,-23.41,55.66
420,12445.1,0.0500,-23.37,55.61
421,12589.3,0.0500,-23.27,55.52
422,12735.0,0.0500,-23.23,55.50
423,12882.5,0.0500,-23.16,55.39
424,13031.7,0.0500,-23.07,55.32
425,13182.6,0.0500,-23.01,55.31
426,13335.2,0.0500,-22.94,55.18
427,13489.6,0.0500,-22.86,55.16
428,13645.8,0.0500,-22.80,54.98
429,13803.8,0.0500,-22.75,55.01
430,13963.7,0.0500,-22.67,54.91
431,14125.4,0.0500,-22.59,54.76
432,14288.9,0.0500,-22.53,54.68
433,14454.4,0.0500,-22.47,54.64
434,14621.8,0.0500,-22.40,54.52
435,14791.1,0.0500,-22.33,54.52
436,14962.4,0.0500,-22.26,54.41
437,15135.6,0.0500,-22.18,54.30
438,15310.9,0.0500,-22.11,54.23
439,15488.2,0.0500,-22.05,54.07
440,15667.5,0.0500,-21.98,54.01
441,15848.9,0.0500,-21.92,53.94
442,16032.5,0.0500,-21.84,53.89
443,16218.1,0.0500,-21.76,53.80
444,16405.9,0.0500,-21.71,53.77
445,16595.9,0.0500,-21.63,53.60
446,16788.0,0.0500,-21.56,53.50
447,16982.4,0.0500,-21.51,53.43
448,17179.1,0.0500,-21.44,53.34
449,17378.0,0.0500,-21.37,53.27
450,17579.2,0.0500,-21.31,53.16
451,17782.8,0.0500,-21.24,53.08
452,17988.7,0.0500,-21.17,53.04
453,18197.0,0.0500,-21.10,52.87
454,18407.7,0.0500,-21.03,52.82
455,18620.9,0.0500,-20.96,52.72
456,18836.5,0.0500,-20.89,52.61
457,19054.6,0.0500,-20.83,52.55
458,19275.2,0.0500,-20.75,52.41
459,19498.4,0.0500,-20.69,52.22
460,19724.2,0.0500,-20.63,52.11
461,19952.6,0.0500,-20.55,52.14
462,20183.7,0.0500,-20.49,52.00
463,20417.4,0.0500,-20.42,51.84
464,20653.8,0.0500,-20.43,51.79
465,20893.0,0.0500,-20.28,51.65
466,21134.9,0.0500,-20.22,51.50
467,21379.6,0.0500,-20.15,51.42
468,21627.2,0.0500,-20.08,51.32
469,21877.6,0.0500,-20.02,51.24
470,22130.9,0.0500,-20.04,51.06
471,22387.2,0.0500,-19.97,51.04
472,22646.4,0.0500,-19.82,50.91
473,22908.7,0.0500,-19.84,50.80
474,23173.9,0.0500,-19.68,50.63
475,23442.3,0.0500,-19.62,50.56
476,23713.7,0.0500,-19.55,50.47
477,23988.3,0.0500,-19.48,50.29
478,24266.1,0.0500,-19.41,50.24
479,24547.1,0.0500,-19.35,50.12
480,24831.3,0.0500,-19.30,50.01
481,25118.9,0.0500,-19.22,49.90
482,25409.7,0.0500,-19.22,49.76
483,25704.0,0.0500,-19.09,49.69
484,26001.6,0.0500,-19.02,49.54
485,26302.7,0.0500,-18.95,49.38
486,26607.3,0.0500,-18.88,49.26
487,26915.3,0.0500,-18.82,49.19
488,27227.0,0.0500,-18.74,49.09
489,27542.3,0.0500,-18.68,48.90
490,27861.2,0.0500,-18.61,48.86
491,28183.8,0.0500,-18.55,48.62
492,28510.2,0.0500,-18.48,48.50
493,28840.3,0.0500,-18.41,48.44
494,29174.3,0.0500,-18.34,48.38
495,29512.1,0.0500,-18.29,48.23
496,29853.8,0.0500,-18.29,48.10
497,30199.5,0.0500,-18.14,47.93
498,30549.2,0.0500,-18.09,47.83
499,30903.0,0.0500,-18.02,47.66
500,31260.8,0.0500,-17.94,47.55
501,31622.8,0.0500,-17.87,47.37
502,31989.0,0.0500,-17.80,47.30
503,32359.4,0.0500,-17.73,47.07
504,32734.1,0.0500,-17.66,47.04
505,33113.1,0.0500,-17.60,46.84
506,33496.5,0.0500,-17.54,46.75
507,33884.4,0.0500,-17.45,46.56
508,34276.8,0.0500,-17.40,46.46
509,34673.7,0.0500,-17.31,46.22
510,35075.2,0.0500,-17.23,46.18
511,35481.3,0.0500,-17.18,46.02
512,35892.2,0.0500,-17.09,45.84
513,36307.8,0.0500,-17.03,45.75
514,36728.2,0.0500,-16.97,45.60
515,37153.5,0.0500,-16.89,45.41
516,37583.7,0.0500,-16.83,45.26
517,38018.9,0.0500,-16.75,45.02
518,38459.2,0.0500,-16.68,44.89
519,38904.5,0.0500,-16.61,44.68
520,39355.0,0.0500,-16.53,44.48
521,39810.7,0.0500,-16.46,44.46
522,40271.7,0.0500,-16.39,44.26
523,40738.0,0.0500,-16.30,44.01
524,41209.8,0.0500,-16.24,43.89
525,41686.9,0.0500,-16.19,43.71
526,42169.7,0.0500,-16.15,43.51
527,42658.0,0.0500,-16.01,43.34
528,43151.9,0.0500,-15.94,43.25
529,43651.6,0.0500,-15.87,43.02
530,44157.0,0.0500,-15.80,42.84
531,44668.4,0.0500,-15.72,42.59
532,45185.6,0.0500,-15.62,42.37
533,45708.8,0.0500,-15.55,42.18
534,46238.1,0.0500,-15.49,42.11
535,46773.5,0.0500,-15.40,41.80
536,47315.1,0.0500,-15.32,41.58
537,47863.0,0.0500,-15.25,41.33
538,48417.2,0.0500,-15.18,41.06
539,48977.9,0.0500,-15.10,40.89
540,49545.0,0.0500,-15.01,40.78
541,50118.7,0.0500,-14.94,40.54
542,50699.1,0.0500,-14.86,40.25
543,51286.1,0.0500,-14.82,40.00
544,51880.0,0.0500,-14.68,39.83
545,52480.7,0.0500,-14.62,39.58
546,53088.4,0.0500,-14.53,39.30
547,53703.2,0.0500,-14.45,39.10
548,54325.0,0.0500,-14.37,38.75
549,54954.1,0.0500,-14.28,38.33
550,55590.4,0.0500,-14.25,38.07
551,56234.1,0.0500,-14.16,37.94
552,56885.3,0.0500,-14.06,37.48
553,57544.0,0.0500,-13.96,37.45
554,58210.3,0.0500,-13.90,37.04
555,58884.4,0.0500,-13.78,36.63
556,59566.2,0.0500,-13.69,36.24
557,60256.0,0.0500,-13.64,35.79
558,60953.7,0.0500,-13.55,35.67
559,61659.5,0.0500,-13.46,35.26
560,62373.5,0.0500,-13.36,35.01
561,63095.7,0.0500,-13.29,34.56
562,63826.3,0.0500,-13.18,34.23
563,64565.4,0.0500,-13.10,33.86
564,65313.1,0.0500,-13.01,33.46
565,66069.3,0.0500,-12.92,33.16
566,66834.4,0.0500,-12.82,32.80
567,67608.3,0.0500,-12.72,32.17
568,68391.2,0.0500,-12.59,31.68
569,69183.1,0.0500,-12.57,31.21
570,69984.2,0.0500,-12.46,31.04
571,70794.6,0.0500,-12.37,30.43
572,71614.3,0.0500,-12.26,30.05
573,72443.6,0.0500,-12.18,29.52
574,73282.5,0.0500,-12.08,28.98
575,74131.0,0.0500,-11.98,28.30
576,74989.4,0.0500,-11.92,27.77
577,75857.8,0.0500,-11.79,27.37
578,76736.1,0.0500,-11.70,26.76
579,77624.7,0.0500,-11.60,26.15
580,78523.6,0.0500,-11.51,25.63
581,79432.8,0.0500,-11.40,25.14
582,80352.6,0.0500,-11.34,24.36
583,81283.1,0.0500,-11.22,23.76
584,82224.3,0.0500,-11.11,23.16
585,83176.4,0.0500,-11.02,22.35
586,84139.5,0.0500,-10.93,21.90
587,85113.8,0.0500,-10.84,21.15
588,86099.4,0.0500,-10.74,20.42
589,87096.4,0.0500,-10.67,19.65
590,88104.9,0.0500,-10.57,19.01
591,89125.1,0.0500,-10.47,17.90
592,90157.1,0.0500,-10.39,17.31
593,91201.1,0.0500,-10.28,16.33
594,92257.1,0.0500,-10.20,15.50
595,93325.4,0.0500,-10.11,14.73
596,94406.1,0.0500,-10.02,13.94
597,95499.3,0.0500,-9.93,12.92
598,96605.1,0.0500,-9.85,12.12
599,97723.7,0.0500,-9.79,11.01
600,98855.3,0.0500,-9.71,10.07
601,100000.0,0.0500,-9.61,8.92
602,101157.9,0.0500,-9.55,7.97
603,102329.3,0.0500,-9.47,6.65
604,103514.2,0.0500,-9.40,5.78
605,104712.9,0.0500,-9.35,4.82
606,105925.4,0.0500,-9.32,3.53
607,107151.9,0.0500,-9.23,2.48
608,108392.7,0.0500,-9.15,1.46
609,109647.8,0.0500,-9.10,0.10
610,110917.5,0.0500,-9.10,-1.20
611,112201.8,0.0500,-9.03,-2.27
612,113501.1,0.0500,-9.00,-3.59
613,114815.4,0.0500,-8.92,-4.85
614,116144.9,0.0500,-8.93,-5.84
615,117489.8,0.0500,-8.86,-7.24
616,118850.2,0.0500,-8.86,-8.93
617,120226.4,0.0500,-8.82,-10.16
618,121618.6,0.0500,-8.82,-11.31
619,123026.9,0.0500,-8.78,-12.68
620,124451.5,0.0500,-8.82,-13.85
621,125892.5,0.0500,-8.76,-15.10
622,127350.3,0.0500,-8.80,-16.55
623,128825.0,0.0500,-8.84,-18.25
624,130316.7,0.0500,-8.84,-19.47
625,131825.7,0.0500,-8.88,-20.93
626,133352.1,0.0500,-8.87,-22.19
627,134896.3,0.0500,-8.93,-23.60
628,136458.3,0.0500,-8.95,-24.85
629,138038.4,0.0500,-9.03,-26.35
630,139636.8,0.0500,-9.11,-27.71
631,141253.8,0.0500,-9.21,-29.94
632,142889.4,0.0500,-9.33,-30.55
633,144544.0,0.0500,-9.24,-31.47
634,146217.7,0.0500,-9.32,-32.87
635,147910.8,0.0500,-9.39,-34.04
636,149623.6,0.0500,-9.49,-35.31
637,151356.1,0.0500,-9.55,-36.56
638,153108.7,0.0500,-9.76,-39.23
639,154881.7,0.0500,-9.74,-39.11
640,156675.1,0.0500,-9.98,-40.84
641,158489.3,0.0500,-10.09,-41.51
642,160324.5,0.0500,-10.04,-42.67
643,162181.0,0.0500,-10.19,-43.62
644,164059.0,0.0500,-10.30,-44.63
