#, Frequency (Hz), Amplitude (Vpp), Gain (dB), Phase (°)
1,100.0,0.0500,-50.01,53.33
2,101.2,0.0500,-49.90,50.27
3,102.3,0.0500,-49.99,53.23
4,103.5,0.0500,-49.57,51.30
5,104.7,0.0500,-49.53,52.76
6,105.9,0.0500,-49.57,53.87
7,107.2,0.0500,-49.54,52.82
8,108.4,0.0500,-49.54,54.21
9,109.6,0.0500,-49.48,53.30
10,110.9,0.0500,-49.35,53.13
11,112.2,0.0500,-49.53,52.99
12,113.5,0.0500,-49.41,53.41
13,114.8,0.0500,-49.28,54.05
14,116.1,0.0500,-49.07,52.42
15,117.5,0.0500,-49.48,52.49
16,118.9,0.0500,-49.39,53.11
17,120.2,0.0500,-49.22,53.93
18,121.6,0.0500,-49.08,54.45
19,123.0,0.0500,-48.97,52.42
20,124.5,0.0500,-48.63,52.40
21,125.9,0.0500,-48.81,52.64
22,127.4,0.0500,-48.85,53.30
23,128.8,0.0500,-48.82,51.20
24,130.3,0.0500,-48.85,54.16
25,131.8,0.0500,-48.83,52.38
26,133.4,0.0500,-48.53,53.72
27,134.9,0.0500,-48.56,52.14
28,136.5,0.0500,-48.58,54.01
29,138.0,0.0500,-48.60,53.34
30,139.6,0.0500,-48.30,52.95
31,141.3,0.0500,-48.22,52.60
32,142.9,0.0500,-48.25,54.62
33,144.5,0.0500,-48.23,53.50
34,146.2,0.0500,-48.01,53.57
35,147.9,0.0500,-48.02,52.47
36,149.6,0.0500,-47.99,53.51
37,151.4,0.0500,-47.83,52.79
38,153.1,0.0500,-47.89,53.32
39,154.9,0.0500,-48.15,52.39
40,156.7,0.0500,-47.86,53.27
41,158.5,0.0500,-47.66,54.56
42,160.3,0.0500,-47.60,53.89
43,162.2,0.0500,-47.49,53.38
44,164.1,0.0500,-47.69,53.12
45,166.0,0.0500,-47.49,54.08
46,167.9,0.0500,-47.62,53.63
47,169.8,0.0500,-47.51,53.43
48,171.8,0.0500,-47.47,53.54
49,173.8,0.0500,-47.31,53.12
50,175.8,0.0500,-47.29,54.10
51,177.8,0.0500,-47.20,53.46
52,179.9,0.0500,-47.06,53.21
53,182.0,0.0500,-47.24,54.28
54,184.1,0.0500,-47.09,54.75
55,186.2,0.0500,-47.01,55.26
56,188.4,0.0500,-46.85,55.18
57,190.5,0.0500,-47.00,54.23
58,192.8,0.0500,-46.91,54.86
59,195.0,0.0500,-46.92,54.12
60,197.2,0.0500,-46.92,54.96
61,199.5,0.0500,-46.67,55.37
62,201.8,0.0500,-46.57,54.89
63,204.2,0.0500,-46.52,54.65
64,206.5,0.0500,-46.50,55.96
65,208.9,0.0500,-46.49,55.15
66,211.3,0.0500,-46.37,54.59
67,213.8,0.0500,-46.25,55.18
68,216.3,0.0500,-46.33,54.97
69,218.8,0.0500,-46.16,54.30
70,221.3,0.0500,-46.16,54.94
71,223.9,0.0500,-46.15,55.15
72,226.5,0.0500,-46.12,55.60
73,229.1,0.0500,-46.00,55.82
74,231.7,0.0500,-45.89,55.48
75,234.4,0.0500,-45.87,55.47
76,237.1,0.0500,-45.90,56.31
77,239.9,0.0500,-45.51,55.15
78,242.7,0.0500,-45.66,56.12
79,245.5,0.0500,-45.52,55.22
80,248.3,0.0500,-45.60,55.77
81,251.2,0.0500,-45.50,56.22
82,254.1,0.0500,-45.37,56.14
83,257.0,0.0500,-45.29,56.55
84,260.0,0.0500,-45.32,55.80
85,263.0,0.0500,-45.22,56.43
86,266.1,0.0500,-45.20,55.86
87,269.2,0.0500,-45.22,56.47
88,272.3,0.0500,-45.09,56.48
89,275.4,0.0500,-44.93,56.37
90,278.6,0.0500,-44.86,56.31
91,281.8,0.0500,-44.92,56.61
92,285.1,0.0500,-44.78,56.68
93,288.4,0.0500,-44.69,56.93
94,291.7,0.0500,-44.61,56.49
95,295.1,0.0500,-44.53,57.60
96,298.5,0.0500,-44.55,57.44
97,302.0,0.0500,-44.47,57.34
98,305.5,0.0500,-44.46,56.80
99,309.0,0.0500,-44.22,57.96
100,312.6,0.0500,-44.39,57.83
101,316.2,0.0500,-44.16,57.70
102,319.9,0.0500,-44.17,57.10
103,323.6,0.0500,-44.07,57.39
104,327.3,0.0500,-44.08,57.14
105,331.1,0.0500,-44.03,57.60
106,335.0,0.0500,-43.95,57.63
107,338.8,0.0500,-43.75,56.90
108,342.8,0.0500,-43.74,57.64
109,346.7,0.0500,-43.69,58.01
110,350.8,0.0500,-43.53,58.65
111,354.8,0.0500,-43.53,58.23
112,358.9,0.0500,-43.62,58.32
113,363.1,0.0500,-43.40,58.40
114,367.3,0.0500,-43.30,58.14
115,371.5,0.0500,-43.30,58.04
116,375.8,0.0500,-43.18,58.73
117,380.2,0.0500,-43.22,58.75
118,384.6,0.0500,-43.07,58.77
119,389.0,0.0500,-43.02,58.71
120,393.6,0.0500,-42.95,58.59
121,398.1,0.0500,-42.94,59.04
122,402.7,0.0500,-42.86,59.40
123,407.4,0.0500,-42.72,59.06
124,412.1,0.0500,-42.75,58.77
125,416.9,0.0500,-42.62,60.06
126,421.7,0.0500,-42.61,59.45
127,426.6,0.0500,-42.45,59.60
128,431.5,0.0500,-42.50,59.36
129,436.5,0.0500,-42.38,59.45
130,441.6,0.0500,-42.32,59.64
131,446.7,0.0500,-42.20,59.55
132,451.9,0.0500,-42.18,59.66
133,457.1,0.0500,-42.08,59.25
134,462.4,0.0500,-41.97,59.95
135,467.7,0.0500,-41.88,59.65
136,473.2,0.0500,-41.83,59.83
137,478.6,0.0500,-41.82,59.89
138,484.2,0.0500,-41.76,60.05
139,489.8,0.0500,-41.70,60.07
140,495.5,0.0500,-41.67,60.18
141,501.2,0.0500,-41.53,59.93
142,507.0,0.0500,-41.52,59.39
143,512.9,0.0500,-41.38,60.49
144,518.8,0.0500,-41.26,60.17
145,524.8,0.0500,-41.24,60.07
146,530.9,0.0500,-41.24,60.33
147,537.0,0.0500,-41.19,60.62
148,543.3,0.0500,-40.88,60.40
149,549.5,0.0500,-41.06,60.78
150,555.9,0.0500,-40.95,61.05
151,562.3,0.0500,-40.99,60.42
152,568.9,0.0500,-40.89,60.43
153,575.4,0.0500,-40.85,60.69
154,582.1,0.0500,-40.64,61.03
155,588.8,0.0500,-40.58,61.17
156,595.7,0.0500,-40.46,60.55
157,602.6,0.0500,-40.41,60.21
158,609.5,0.0500,-40.40,61.42
159,616.6,0.0500,-40.29,60.67
160,623.7,0.0500,-40.24,60.94
161,631.0,0.0500,-40.11,61.05
162,638.3,0.0500,-40.11,60.88
163,645.7,0.0500,-40.01,61.05
164,653.1,0.0500,-40.00,61.51
165,660.7,0.0500,-39.88,61.30
166,668.3,0.0500,-39.81,61.35
167,676.1,0.0500,-39.68,61.52
168,683.9,0.0500,-39.71,61.46
169,691.8,0.0500,-39.48,61.27
170,699.8,0.0500,-39.56,61.89
171,707.9,0.0500,-39.44,60.91
172,716.1,0.0500,-39.42,61.74
173,724.4,0.0500,-39.27,61.62
174,732.8,0.0500,-39.22,61.41
175,741.3,0.0500,-39.16,61.91
176,749.9,0.0500,-39.10,61.00
177,758.6,0.0500,-39.04,61.67
178,767.4,0.0500,-38.94,62.04
179,776.2,0.0500,-38.85,61.26
180,785.2,0.0500,-38.79,61.28
181,794.3,0.0500,-38.67,61.29
182,803.5,0.0500,-38.58,62.40
183,812.8,0.0500,-38.55,61.91
184,822.2,0.0500,-38.52,62.22
185,831.8,0.0500,-38.52,61.89
186,841.4,0.0500,-38.35,62.22
187,851.1,0.0500,-38.27,62.10
188,861.0,0.0500,-38.20,61.87
189,871.0,0.0500,-38.14,62.10
190,881.0,0.0500,-38.09,61.92
191,891.3,0.0500,-38.00,62.03
192,901.6,0.0500,-37.92,62.00
193,912.0,0.0500,-37.85,62.29
194,922.6,0.0500,-37.67,62.52
195,933.3,0.0500,-37.67,62.45
196,944.1,0.0500,-37.59,62.53
197,955.0,0.0500,-37.52,62.71
198,966.1,0.0500,-37.45,62.29
199,977.2,0.0500,-37.46,63.00
200,988.6,0.0500,-37.37,62.49
201,1000.0,0.0500,-37.34,62.52
202,1011.6,0.0500,-37.11,62.46
203,1023.3,0.0500,-37.12,62.82
204,1035.1,0.0500,-37.06,63.12
205,1047.1,0.0500,-37.04,63.07
206,1059.3,0.0500,-37.02,62.78
207,1071.5,0.0500,-36.93,62.72
208,1083.9,0.0500,-36.83,62.49
209,1096.5,0.0500,-36.68,62.65
210,1109.2,0.0500,-36.64,62.51
211,1122.0,0.0500,-36.62,62.72
212,1135.0,0.0500,-36.48,62.84
213,1148.2,0.0500,-36.39,62.68
214,1161.4,0.0500,-36.40,63.10
215,1174.9,0.0500,-36.27,62.61
216,1188.5,0.0500,-36.16,63.48
217,1202.3,0.0500,-36.13,63.04
218,1216.2,0.0500,-36.06,63.11
219,1230.3,0.0500,-35.95,63.27
220,1244.5,0.0500,-35.87,63.51
221,1258.9,0.0500,-35.86,63.16
222,1273.5,0.0500,-35.80,63.28
223,1288.2,0.0500,-35.71,63.21
224,1303.2,0.0500,-35.62,63.28
225,1318.3,0.0500,-35.52,63.44
226,1333.5,0.0500,-35.39,63.11
227,1349.0,0.0500,-35.42,63.58
228,1364.6,0.0500,-35.36,63.40
229,1380.4,0.0500,-35.24,63.17
230,1396.4,0.0500,-35.11,63.56
231,1412.5,0.0500,-35.09,63.33
232,1428.9,0.0500,-35.05,63.26
233,1445.4,0.0500,-34.97,63.46
234,1462.2,0.0500,-34.83,63.25
235,1479.1,0.0500,-34.86,63.25
236,1496.2,0.0500,-34.73,63.38
237,1513.6,0.0500,-34.68,64.25
238,1531.1,0.0500,-34.70,63.85
239,1548.8,0.0500,-34.56,64.06
240,1566.8,0.0500,-34.42,63.77
241,1584.9,0.0500,-34.48,63.50
242,1603.2,0.0500,-34.34,63.70
243,1621.8,0.0500,-34.27,63.80
244,1640.6,0.0500,-34.21,64.01
245,1659.6,0.0500,-33.98,64.19
246,1678.8,0.0500,-34.08,63.99
247,1698.2,0.0500,-33.89,63.38
248,1717.9,0.0500,-33.83,64.05
249,1737.8,0.0500,-33.83,63.80
250,1757.9,0.0500,-33.84,64.77
251,1778.3,0.0500,-33.69,63.72
252,1798.9,0.0500,-33.60,64.26
253,1819.7,0.0500,-33.54,63.55
254,1840.8,0.0500,-33.42,64.18
255,1862.1,0.0500,-33.31,64.14
256,1883.6,0.0500,-33.30,64.11
257,1905.5,0.0500,-33.16,64.10
258,1927.5,0.0500,-32.98,64.30
259,1949.8,0.0500,-32.98,64.39
260,1972.4,0.0500,-32.99,63.18
261,1995.3,0.0500,-32.93,63.87
262,2018.4,0.0500,-32.85,63.99
263,2041.7,0.0500,-32.78,64.14
264,2065.4,0.0500,-32.68,64.21
265,2089.3,0.0500,-32.58,64.48
266,2113.5,0.0500,-32.50,64.33
267,2138.0,0.0500,-32.42,64.14
268,2162.7,0.0500,-32.37,64.35
269,2187.8,0.0500,-32.35,64.21
270,2213.1,0.0500,-32.35,64.29
271,2238.7,0.0500,-32.22,64.35
272,2264.6,0.0500,-32.09,64.33
273,2290.9,0.0500,-32.04,64.48
274,2317.4,0.0500,-31.94,64.26
275,2344.2,0.0500,-31.82,64.33
276,2371.4,0.0500,-31.75,64.44
277,2398.8,0.0500,-31.73,64.26
278,2426.6,0.0500,-31.60,63.97
279,2454.7,0.0500,-31.46,64.40
280,2483.1,0.0500,-31.45,64.55
281,2511.9,0.0500,-31.38,64.34
282,2541.0,0.0500,-31.37,64.54
283,2570.4,0.0500,-31.19,64.40
284,2600.2,0.0500,-31.18,64.48
285,2630.3,0.0500,-31.10,64.38
286,2660.7,0.0500,-31.05,64.52
287,2691.5,0.0500,-30.98,64.33
288,2722.7,0.0500,-30.82,64.69
289,2754.2,0.0500,-30.81,64.59
290,2786.1,0.0500,-30.73,65.11
291,2818.4,0.0500,-30.73,64.79
292,2851.0,0.0500,-30.56,64.65
293,2884.0,0.0500,-30.50,64.47
294,2917.4,0.0500,-30.49,64.83
295,2951.2,0.0500,-30.32,64.39
296,2985.4,0.0500,-30.26,64.58
297,3020.0,0.0500,-30.18,64.51
298,3054.9,0.0500,-30.08,64.45
299,3090.3,0.0500,-30.04,64.36
300,3126.1,0.0500,-29.99,64.57
301,3162.3,0.0500,-29.92,64.75
302,3198.9,0.0500,-29.77,64.61
303,3235.9,0.0500,-29.73,64.54
304,3273.4,0.0500,-29.70,64.63
305,3311.3,0.0500,-29.56,64.51
306,3349.7,0.0500,-29.47,64.57
307,3388.4,0.0500,-29.42,64.70
308,3427.7,0.0500,-29.33,64.53
309,3467.4,0.0500,-29.26,64.55
310,3507.5,0.0500,-29.18,64.59
311,3548.1,0.0500,-29.15,64.67
312,3589.2,0.0500,-29.04,64.64
313,3630.8,0.0500,-28.95,64.37
314,3672.8,0.0500,-28.90,64.43
315,3715.4,0.0500,-28.83,64.44
316,3758.4,0.0500,-28.74,64.82
317,3801.9,0.0500,-28.68,64.50
318,3845.9,0.0500,-28.57,64.76
319,3890.5,0.0500,-28.52,64.53
320,3935.5,0.0500,-28.44,64.59
321,3981.1,0.0500,-28.32,64.46
322,4027.2,0.0500,-28.29,64.52
323,4073.8,0.0500,-28.23,64.60
324,4121.0,0.0500,-28.15,64.50
325,4168.7,0.0500,-28.01,64.60
326,4217.0,0.0500,-27.96,64.47
327,4265.8,0.0500,-27.86,64.48
328,4315.2,0.0500,-27.83,64.54
329,4365.2,0.0500,-27.73,64.52
330,4415.7,0.0500,-27.67,64.48
331,4466.8,0.0500,-27.55,64.38
332,4518.6,0.0500,-27.52,64.36
333,4570.9,0.0500,-27.44,64.62
334,4623.8,0.0500,-27.33,64.28
335,4677.4,0.0500,-27.29,64.28
336,4731.5,0.0500,-27.18,64.35
337,4786.3,0.0500,-27.13,64.42
338,4841.7,0.0500,-27.03,64.37
339,4897.8,0.0500,-26.93,64.30
340,4954.5,0.0500,-26.88,64.34
341,5011.9,0.0500,-26.78,64.22
342,5069.9,0.0500,-26.71,64.28
343,5128.6,0.0500,-26.63,64.21
344,5188.0,0.0500,-26.57,64.20
345,5248.1,0.0500,-26.49,64.16
346,5308.8,0.0500,-26.41,64.08
347,5370.3,0.0500,-26.32,64.15
348,5432.5,0.0500,-26.28,64.08
349,5495.4,0.0500,-26.19,64.21
350,5559.0,0.0500,-26.07,63.97
351,5623.4,0.0500,-26.04,64.06
352,5688.5,0.0500,-25.93,63.91
353,5754.4,0.0500,-25.86,64.08
354,5821.0,0.0500,-25.78,63.85
355,5888.4,0.0500,-25.68,63.78
356,5956.6,0.0500,-25.60,63.76
357,6025.6,0.0500,-25.57,63.69
358,6095.4,0.0500,-25.44,63.80
359,6166.0,0.0500,-25.38,63.79
360,6237.3,0.0500,-25.31,63.63
361,6309.6,0.0500,-25.24,63.63
362,6382.6,0.0500,-25.16,63.50
363,6456.5,0.0500,-25.08,63.52
364,6531.3,0.0500,-24.98,63.42
365,6606.9,0.0500,-24.90,63.35
366,6683.4,0.0500,-24.86,63.35
367,6760.8,0.0500,-24.77,63.34
368,6839.1,0.0500,-24.69,63.21
369,6918.3,0.0500,-24.61,63.16
370,6998.4,0.0500,-24.52,63.15
371,7079.5,0.0500,-24.44,63.11
372,7161.4,0.0500,-24.37,63.07
373,7244.4,0.0500,-24.31,62.95
374,7328.2,0.0500,-24.21,62.94
375,7413.1,0.0500,-24.12,62.89
376,7498.9,0.0500,-24.05,62.78
377,7585.8,0.0500,-23.98,62.86
378,7673.6,0.0500,-23.89,62.74
379,7762.5,0.0500,-23.82,62.62
380,7852.4,0.0500,-23.74,62.55
381,7943.3,0.0500,-23.67,62.57
382,8035.3,0.0500,-23.59,62.43
383,8128.3,0.0500,-23.60,62.35
384,8222.4,0.0500,-23.53,62.29
385,8317.6,0.0500,-23.36,62.29
386,8414.0,0.0500,-23.28,62.10
387,8511.4,0.0500,-23.20,62.08
388,8609.9,0.0500,-23.11,61.97
389,8709.6,0.0500,-23.04,61.96
390,8810.5,0.0500,-22.97,61.87
391,8912.5,0.0500,-22.90,61.89
392,9015.7,0.0500,-22.81,61.67
393,9120.1,0.0500,-22.72,61.72
394,9225.7,0.0500,-22.65,61.60
395,9332.5,0.0500,-22.57,61.52
396,9440.6,0.0500,-22.56,61.41
397,9549.9,0.0500,-22.50,61.30
398,9660.5,0.0500,-22.33,61.23
399,9772.4,0.0500,-22.33,61.18
400,9885.5,0.0500,-22.28,61.13
401,10000.0,0.0500,-22.10,61.00
402,10115.8,0.0500,-22.03,60.88
403,10232.9,0.0500,-21.94,60.86
404,10351.4,0.0500,-21.95,60.77
405,10471.3,0.0500,-21.79,60.59
406,10592.5,0.0500,-21.80,60.54
407,10715.2,0.0500,-21.71,60.40
408,10839.3,0.0500,-21.64,60.36
409,10964.8,0.0500,-21.55,60.20
410,11091.7,0.0500,-21.47,60.10
411,11220.2,0.0500,-21.40,60.03
412,11350.1,0.0500,-21.25,59.96
413,11481.5,0.0500,-21.17,59.85
414,11614.5,0.0500,-21.09,59.78
415,11749.0,0.0500,-21.02,59.69
416,11885.0,0.0500,-20.94,59.49
417,12022.6,0.0500,-20.87,59.34
418,12161.9,0.0500,-20.79,59.29
419,12302.7,0.0500,-20.71,59.23
420,12445.1,0.0500,-20.71,59.10
421,12589.3,0.0500,-20.64,58.91
422,12735.0,0.0500,-20.54,58.91
423,12882.5,0.0500,-20.41,58.77
424,13031.7,0.0500,-20.34,58.65
425,13182.6,0.0500,-20.27,58.48
426,13335.2,0.0500,-20.19,58.37
427,13489.6,0.0500,-20.12,58.33
428,13645.8,0.0500,-20.11,58.14
429,13803.8,0.0500,-20.04,58.01
430,13963.7,0.0500,-19.88,57.91
431,14125.4,0.0500,-19.81,57.84
432,14288.9,0.0500,-19.73,57.61
433,14454.4,0.0500,-19.66,57.51
434,14621.8,0.0500,-19.58,57.40
435,14791.1,0.0500,-19.50,57.26
436,14962.4,0.0500,-19.40,57.14
437,15135.6,0.0500,-19.35,57.06
438,15310.9,0.0500,-19.28,56.84
439,15488.2,0.0500,-19.21,56.75
440,15667.5,0.0500,-19.20,56.59
441,15848.9,0.0500,-19.11,56.46
442,16032.5,0.0500,-19.04,56.28
443,16218.1,0.0500,-18.90,56.24
444,16405.9,0.0500,-18.90,56.00
445,16595.9,0.0500,-18.75,55.91
446,16788.0,0.0500,-18.68,55.81
447,16982.4,0.0500,-18.60,55.56
448,17179.1,0.0500,-18.60,55.43
449,17378.0,0.0500,-18.52,55.31
450,17579.2,0.0500,-18.45,55.21
451,17782.8,0.0500,-18.38,54.99
452,17988.7,0.0500,-18.23,54.87
453,18197.0,0.0500,-18.22,54.69
454,18407.7,0.0500,-18.15,54.56
455,18620.9,0.0500,-18.01,54.41
456,18836.5,0.0500,-17.94,54.23
457,19054.6,0.0500,-17.87,54.07
458,19275.2,0.0500,-17.78,53.94
459,19498.4,0.0500,-17.71,53.73
460,19724.2,0.0500,-17.72,53.59
461,19952.6,0.0500,-17.56,53.40
462,20183.7,0.0500,-17.51,53.32
463,20417.4,0.0500,-17.48,53.09
464,20653.8,0.0500,-17.41,52.93
465,20893.0,0.0500,-17.27,52.79
466,21134.9,0.0500,-17.20,52.58
467,21379.6,0.0500,-17.19,52.41
468,21627.2,0.0500,-17.12,52.30
469,21877.6,0.0500,-17.03,52.07
470,22130.9,0.0500,-16.96,51.90
471,22387.2,0.0500,-16.89,51.72
472,22646.4,0.0500,-16.82,51.54
473,22908.7,0.0500,-16.68,51.36
474,23173.9,0.0500,-16.61,51.26
475,23442.3,0.0500,-16.59,51.02
476,23713.7,0.0500,-16.46,50.86
477,23988.3,0.0500,-16.44,50.68
478,24266.1,0.0500,-16.31,50.51
479,24547.1,0.0500,-16.31,50.29
480,24831.3,0.0500,-16.21,50.09
481,25118.9,0.0500,-16.09,49.90
482,25409.7,0.0500,-16.02,49.72
483,25704.0,0.0500,-15.95,49.49
484,26001.6,0.0500,-15.88,49.33
485,26302.7,0.0500,-15.84,49.15
486,26607.3,0.0500,-15.78,48.92
487,26915.3,0.0500,-15.69,48.74
488,27227.0,0.0500,-15.62,48.50
489,27542.3,0.0500,-15.55,48.33
490,27861.2,0.0500,-15.47,48.09
491,28183.8,0.0500,-15.35,47.93
492,28510.2,0.0500,-15.31,47.70
493,28840.3,0.0500,-15.23,47.42
494,29174.3,0.0500,-15.17,47.29
495,29512.1,0.0500,-15.10,47.03
496,29853.8,0.0500,-14.97,46.80
497,30199.5,0.0500,-14.94,46.55
498,30549.2,0.0500,-14.86,46.39
499,30903.0,0.0500,-14.79,46.11
500,31260.8,0.0500,-14.71,45.89
501,31622.8,0.0500,-14.60,45.67
502,31989.0,0.0500,-14.56,45.41
503,32359.4,0.0500,-14.48,45.19
504,32734.1,0.0500,-14.40,44.98
505,33113.1,0.0500,-14.32,44.66
506,33496.5,0.0500,-14.24,44.52
507,33884.4,0.0500,-14.16,44.26
508,34276.8,0.0500,-14.08,43.93
509,34673.7,0.0500,-14.01,43.76
510,35075.2,0.0500,-13.92,43.58
511,35481.3,0.0500,-13.84,43.19
512,35892.2,0.0500,-13.78,42.91
513,36307.8,0.0500,-13.68,42.72
514,36728.2,0.0500,-13.60,42.42
515,37153.5,0.0500,-13.52,42.10
516,37583.7,0.0500,-13.46,41.74
517,38018.9,0.0500,-13.35,41.62
518,38459.2,0.0500,-13.31,41.14
519,38904.5,0.0500,-13.20,40.98
520,39355.0,0.0500,-13.12,40.65
521,39810.7,0.0500,-13.03,40.37
522,40271.7,0.0500,-12.94,40.09
523,40738.0,0.0500,-12.86,39.78
524,41209.8,0.0500,-12.79,39.33
525,41686.9,0.0500,-12.70,39.14
526,42169.7,0.0500,-12.63,38.71
527,42658.0,0.0500,-12.52,38.37
528,43151.9,0.0500,-12.46,37.97
529,43651.6,0.0500,-12.33,37.50
530,44157.0,0.0500,-12.26,37.13
531,44668.4,0.0500,-12.19,36.86
532,45185.6,0.0500,-12.10,36.60
533,45708.8,0.0500,-12.00,36.15
534,46238.1,0.0500,-11.92,35.73
535,46773.5,0.0500,-11.82,35.27
536,47315.1,0.0500,-11.75,34.83
537,47863.0,0.0500,-11.68,34.52
538,48417.2,0.0500,-11.56,34.13
539,48977.9,0.0500,-11.50,33.44
540,49545.0,0.0500,-11.39,33.23
541,50118.7,0.0500,-11.27,32.69
542,50699.1,0.0500,-11.21,32.11
543,51286.1,0.0500,-11.13,31.69
544,51880.0,0.0500,-11.02,31.34
545,52480.7,0.0500,-10.88,30.87
546,53088.4,0.0500,-10.85,30.23
547,53703.2,0.0500,-10.75,29.73
548,54325.0,0.0500,-10.67,29.17
549,54954.1,0.0500,-10.59,28.65
550,55590.4,0.0500,-10.46,27.95
551,56234.1,0.0500,-10.34,27.25
552,56885.3,0.0500,-10.27,26.80
553,57544.0,0.0500,-10.18,26.07
554,58210.3,0.0500,-10.11,25.46
555,58884.4,0.0500,-10.01,24.88
556,59566.2,0.0500,-9.92,24.14
557,60256.0,0.0500,-9.82,23.70
558,60953.7,0.0500,-9.77,22.90
559,61659.5,0.0500,-9.64,22.03
560,62373.5,0.0500,-9.53,21.15
561,63095.7,0.0500,-9.45,20.60
562,63826.3,0.0500,-9.38,19.87
563,64565.4,0.0500,-9.32,18.91
564,65313.1,0.0500,-9.21,18.16
565,66069.3,0.0500,-9.10,17.32
566,66834.4,0.0500,-9.03,16.71
567,67608.3,0.0500,-8.98,15.48
568,68391.2,0.0500,-8.88,15.05
569,69183.1,0.0500,-8.78,13.81
570,69984.2,0.0500,-8.70,13.20
571,70794.6,0.0500,-8.62,12.04
572,71614.3,0.0500,-8.50,10.97
573,72443.6,0.0500,-8.47,9.93
574,73282.5,0.0500,-8.36,9.01
575,74131.0,0.0500,-8.33,7.90
576,74989.4,0.0500,-8.27,6.68
577,75857.8,0.0500,-8.21,5.84
578,76736.1,0.0500,-8.15,4.70
579,77624.7,0.0500,-8.08,3.77
580,78523.6,0.0500,-8.01,2.48
581,79432.8,0.0500,-7.94,1.26
582,80352.6,0.0500,-7.94,0.41
583,81283.1,0.0500,-7.86,-1.08
584,82224.3,0.0500,-7.84,-2.23
585,83176.4,0.0500,-7.78,-3.58
586,84139.5,0.0500,-7.78,-5.00
587,85113.8,0.0500,-7.76,-6.09
588,86099.4,0.0500,-7.71,-7.65
589,87096.4,0.0500,-7.67,-8.78
590,88104.9,0.0500,-7.72,-9.90
591,89125.1,0.0500,-7.63,-11.35
592,90157.1,0.0500,-7.67,-12.82
593,91201.1,0.0500,-7.70,-13.99
594,92257.1,0.0500,-7.77,-15.34
595,93325.4,0.0500,-7.72,-16.46
596,94406.1,0.0500,-7.72,-18.09
597,95499.3,0.0500,-7.74,-19.57
598,96605.1,0.0500,-7.71,-20.51
599,97723.7,0.0500,-7.71,-22.17
600,98855.3,0.0500,-7.83,-23.36
601,100000.0,0.0500,-7.94,-24.49
602,101157.9,0.0500,-7.97,-25.62
603,102329.3,0.0500,-8.00,-27.24
604,103514.2,0.0500,-8.05,-28.57
605,104712.9,0.0500,-8.09,-29.82
606,105925.4,0.0500,-8.16,-31.12
607,107151.9,0.0500,-8.22,-32.63
608,108392.7,0.0500,-8.29,-33.90
609,109647.8,0.0500,-8.38,-34.74
610,110917.5,0.0500,-8.50,-36.28
611,112201.8,0.0500,-8.60,-37.12
612,113501.1,0.0500,-8.64,-38.94
613,114815.4,0.0500,-8.76,-39.28
614,116144.9,0.0500,-8.89,-40.21
615,117489.8,0.0500,-9.00,-41.92
616,118850.2,0.0500,-9.15,-42.73
617,120226.4,0.0500,-9.20,-43.88
618,121618.6,0.0500,-9.30,-44.95
619,123026.9,0.0500,-9.40,-45.93
620,124451.5,0.0500,-9.56,-46.74
621,125892.5,0.0500,-9.66,-48.00
622,127350.3,0.0500,-9.81,-48.81
623,128825.0,0.0500,-10.08,-50.24
624,130316.7,0.0500,-9.97,-50.79
625,131825.7,0.0500,-10.15,-51.22
626,133352.1,0.0500,-10.26,-52.60
627,134896.3,0.0500,-10.44,-53.27
628,136458.3,0.0500,-10.57,-55.27
629,138038.4,0.0500,-10.67,-55.52
630,139636.8,0.0500,-10.90,-56.54
631,141253.8,0.0500,-10.87,-57.41
632,142889.4,0.0500,-11.28,-55.40
633,144544.0,0.0500,-11.12,-58.89
634,146217.7,0.0500,-11.35,-59.16
635,147910.8,0.0500,-11.51,-61.20
636,149623.6,0.0500,-11.66,-59.58
637,151356.1,0.0500,-12.14,-62.46
638,153108.7,0.0500,-11.84,-61.74
639,154881.7,0.0500,-11.96,-62.04
640,156675.1,0.0500,-12.11,-65.66
641,158489.3,0.0500,-12.68,-62.98
642,160324.5,0.0500,-12.35,-64.51
643,162181.0,0.0500,-12.40,-65.00
644,164059.0,0.0500,-13.04,-57.45
