#, Frequency (Hz), Amplitude (Vpp), Gain (dB), Phase (°)
1,100.0,0.0500,-64.43,-0.03
2,101.2,0.0500,-63.79,5.92
3,102.3,0.0500,-64.40,5.21
4,103.5,0.0500,-65.07,3.66
5,104.7,0.0500,-64.54,5.76
6,105.9,0.0500,-63.62,4.12
7,107.2,0.0500,-64.22,7.17
8,108.4,0.0500,-65.19,7.31
9,109.6,0.0500,-63.81,2.71
10,110.9,0.0500,-64.13,3.07
11,112.2,0.0500,-64.20,2.85
12,113.5,0.0500,-64.89,-0.81
13,114.8,0.0500,-65.28,0.34
14,116.1,0.0500,-64.15,10.03
15,117.5,0.0500,-63.95,-3.87
16,118.9,0.0500,-63.92,4.75
17,120.2,0.0500,-64.70,6.41
18,121.6,0.0500,-64.15,2.43
19,123.0,0.0500,-65.05,-3.11
20,124.5,0.0500,-64.91,-4.06
21,125.9,0.0500,-64.17,0.36
22,127.4,0.0500,-65.42,-2.24
23,128.8,0.0500,-63.38,4.78
24,130.3,0.0500,-64.64,-1.05
25,131.8,0.0500,-65.63,3.81
26,133.4,0.0500,-66.29,-6.99
27,134.9,0.0500,-65.07,-0.62
28,136.5,0.0500,-65.81,1.11
29,138.0,0.0500,-64.47,7.70
30,139.6,0.0500,-64.45,-0.61
31,141.3,0.0500,-64.27,3.27
32,142.9,0.0500,-63.60,5.99
33,144.5,0.0500,-65.19,5.46
34,146.2,0.0500,-64.81,3.33
35,147.9,0.0500,-64.47,-3.78
36,149.6,0.0500,-63.86,6.34
37,151.4,0.0500,-64.42,-1.61
38,153.1,0.0500,-63.51,10.30
39,154.9,0.0500,-65.69,5.14
40,156.7,0.0500,-63.99,5.86
41,158.5,0.0500,-64.86,2.95
42,160.3,0.0500,-64.14,8.38
43,162.2,0.0500,-64.65,13.53
44,164.1,0.0500,-64.07,7.02
45,166.0,0.0500,-63.82,4.25
46,167.9,0.0500,-65.01,-3.52
47,169.8,0.0500,-63.25,1.87
48,171.8,0.0500,-64.13,3.99
49,173.8,0.0500,-64.47,-1.09
50,175.8,0.0500,-64.07,7.25
51,177.8,0.0500,-63.84,2.77
52,179.9,0.0500,-65.14,11.00
53,182.0,0.0500,-64.53,8.77
54,184.1,0.0500,-63.22,9.01
55,186.2,0.0500,-65.15,1.08
56,188.4,0.0500,-64.47,11.83
57,190.5,0.0500,-63.75,9.38
58,192.8,0.0500,-64.39,8.22
59,195.0,0.0500,-64.70,3.04
60,197.2,0.0500,-64.84,2.42
61,199.5,0.0500,-65.36,0.32
62,201.8,0.0500,-64.63,4.63
63,204.2,0.0500,-64.23,3.66
64,206.5,0.0500,-64.08,12.36
65,208.9,0.0500,-65.31,3.93
66,211.3,0.0500,-64.65,6.55
67,213.8,0.0500,-65.10,3.26
68,216.3,0.0500,-64.41,5.68
69,218.8,0.0500,-64.01,9.90
70,221.3,0.0500,-64.53,7.04
71,223.9,0.0500,-64.48,11.61
72,226.5,0.0500,-64.47,6.86
73,229.1,0.0500,-64.72,3.38
74,231.7,0.0500,-64.78,7.68
75,234.4,0.0500,-66.03,9.51
76,237.1,0.0500,-64.65,2.22
77,239.9,0.0500,-63.50,7.18
78,242.7,0.0500,-64.58,3.38
79,245.5,0.0500,-65.04,5.97
80,248.3,0.0500,-64.35,5.47
81,251.2,0.0500,-64.83,5.25
82,254.1,0.0500,-64.85,11.42
83,257.0,0.0500,-64.37,3.46
84,260.0,0.0500,-63.96,3.11
85,263.0,0.0500,-64.28,10.38
86,266.1,0.0500,-64.83,6.38
87,269.2,0.0500,-65.15,10.45
88,272.3,0.0500,-64.80,10.34
89,275.4,0.0500,-63.85,3.34
90,278.6,0.0500,-64.33,8.09
91,281.8,0.0500,-65.01,6.44
92,285.1,0.0500,-64.57,6.39
93,288.4,0.0500,-64.08,6.87
94,291.7,0.0500,-63.97,10.45
95,295.1,0.0500,-64.45,10.60
96,298.5,0.0500,-64.10,7.13
97,302.0,0.0500,-63.88,9.85
98,305.5,0.0500,-64.01,10.46
99,309.0,0.0500,-64.11,5.81
100,312.6,0.0500,-64.22,5.45
101,316.2,0.0500,-63.45,3.83
102,319.9,0.0500,-64.88,6.81
103,323.6,0.0500,-63.68,16.60
104,327.3,0.0500,-65.09,9.83
105,331.1,0.0500,-64.60,3.61
106,335.0,0.0500,-64.80,11.90
107,338.8,0.0500,-63.14,6.19
108,342.8,0.0500,-64.67,12.29
109,346.7,0.0500,-64.01,5.55
110,350.8,0.0500,-63.79,8.66
111,354.8,0.0500,-63.44,8.73
112,358.9,0.0500,-63.86,11.98
113,363.1,0.0500,-63.56,8.78
114,367.3,0.0500,-64.36,11.82
115,371.5,0.0500,-63.42,0.33
116,375.8,0.0500,-63.50,16.01
117,380.2,0.0500,-64.15,8.42
118,384.6,0.0500,-63.68,11.75
119,389.0,0.0500,-64.97,16.98
120,393.6,0.0500,-63.95,13.30
121,398.1,0.0500,-64.41,13.68
122,402.7,0.0500,-65.19,13.63
123,407.4,0.0500,-64.17,9.78
124,412.1,0.0500,-64.14,8.34
125,416.9,0.0500,-64.02,7.76
126,421.7,0.0500,-64.38,12.88
127,426.6,0.0500,-63.98,12.40
128,431.5,0.0500,-64.12,9.95
129,436.5,0.0500,-63.40,12.36
130,441.6,0.0500,-63.48,10.95
131,446.7,0.0500,-63.58,12.97
132,451.9,0.0500,-62.93,11.32
133,457.1,0.0500,-63.67,13.90
134,462.4,0.0500,-64.02,12.85
135,467.7,0.0500,-64.00,11.72
136,473.2,0.0500,-63.98,11.19
137,478.6,0.0500,-63.63,10.28
138,484.2,0.0500,-64.06,15.24
139,489.8,0.0500,-63.14,13.11
140,495.5,0.0500,-63.92,15.80
141,501.2,0.0500,-63.04,14.58
142,507.0,0.0500,-64.08,8.86
143,512.9,0.0500,-64.66,11.58
144,518.8,0.0500,-64.37,20.85
145,524.8,0.0500,-63.25,11.56
146,530.9,0.0500,-62.99,8.90
147,537.0,0.0500,-63.05,14.75
148,543.3,0.0500,-63.66,8.62
149,549.5,0.0500,-62.80,15.72
150,555.9,0.0500,-62.73,12.60
151,562.3,0.0500,-63.95,18.97
152,568.9,0.0500,-63.00,20.97
153,575.4,0.0500,-64.00,14.43
154,582.1,0.0500,-63.61,16.92
155,588.8,0.0500,-63.71,10.54
156,595.7,0.0500,-63.94,11.11
157,602.6,0.0500,-63.60,16.23
158,609.5,0.0500,-64.20,14.32
159,616.6,0.0500,-64.11,18.14
160,623.7,0.0500,-63.96,11.94
161,631.0,0.0500,-63.36,15.22
162,638.3,0.0500,-62.85,22.12
163,645.7,0.0500,-63.79,16.88
164,653.1,0.0500,-63.05,23.11
165,660.7,0.0500,-63.10,19.47
166,668.3,0.0500,-63.14,16.38
167,676.1,0.0500,-64.46,17.89
168,683.9,0.0500,-62.97,17.76
169,691.8,0.0500,-63.60,15.23
170,699.8,0.0500,-63.25,17.60
171,707.9,0.0500,-62.76,23.64
172,716.1,0.0500,-63.64,17.30
173,724.4,0.0500,-62.42,19.02
174,732.8,0.0500,-62.50,13.62
175,741.3,0.0500,-63.49,12.86
176,749.9,0.0500,-62.71,23.80
177,758.6,0.0500,-63.77,25.03
178,767.4,0.0500,-63.00,22.55
179,776.2,0.0500,-63.50,22.11
180,785.2,0.0500,-62.51,22.00
181,794.3,0.0500,-62.43,20.77
182,803.5,0.0500,-63.66,23.19
183,812.8,0.0500,-63.15,21.93
184,822.2,0.0500,-62.48,22.13
185,831.8,0.0500,-62.47,22.73
186,841.4,0.0500,-63.41,23.38
187,851.1,0.0500,-63.05,22.79
188,861.0,0.0500,-63.00,20.83
189,871.0,0.0500,-62.31,23.52
190,881.0,0.0500,-63.22,28.01
191,891.3,0.0500,-63.23,26.39
192,901.6,0.0500,-62.81,25.13
193,912.0,0.0500,-62.60,25.02
194,922.6,0.0500,-63.30,27.05
195,933.3,0.0500,-63.55,28.54
196,944.1,0.0500,-62.30,27.00
197,955.0,0.0500,-62.50,31.48
198,966.1,0.0500,-62.80,20.63
199,977.2,0.0500,-62.64,27.89
200,988.6,0.0500,-63.00,24.93
201,1000.0,0.0500,-62.95,27.43
202,1011.6,0.0500,-62.57,25.30
203,1023.3,0.0500,-63.02,24.60
204,1035.1,0.0500,-61.79,29.76
205,1047.1,0.0500,-62.94,26.72
206,1059.3,0.0500,-62.13,26.80
207,1071.5,0.0500,-62.68,16.16
208,1083.9,0.0500,-62.26,27.84
209,1096.5,0.0500,-62.71,28.53
210,1109.2,0.0500,-62.42,24.38
211,1122.0,0.0500,-62.62,29.56
212,1135.0,0.0500,-63.61,24.80
213,1148.2,0.0500,-63.26,24.15
214,1161.4,0.0500,-61.77,25.25
215,1174.9,0.0500,-62.85,29.45
216,1188.5,0.0500,-61.79,33.47
217,1202.3,0.0500,-62.05,25.28
218,1216.2,0.0500,-62.09,28.76
219,1230.3,0.0500,-62.73,29.91
220,1244.5,0.0500,-62.44,31.39
221,1258.9,0.0500,-62.09,31.68
222,1273.5,0.0500,-61.68,31.11
223,1288.2,0.0500,-62.65,30.24
224,1303.2,0.0500,-61.48,37.01
225,1318.3,0.0500,-62.78,30.51
226,1333.5,0.0500,-62.56,28.92
227,1349.0,0.0500,-61.53,33.60
228,1364.6,0.0500,-62.58,34.91
229,1380.4,0.0500,-62.27,33.74
230,1396.4,0.0500,-62.29,37.92
231,1412.5,0.0500,-61.07,34.65
232,1428.9,0.0500,-61.51,28.60
233,1445.4,0.0500,-62.32,35.40
234,1462.2,0.0500,-60.50,36.29
235,1479.1,0.0500,-61.38,33.33
236,1496.2,0.0500,-62.64,33.28
237,1513.6,0.0500,-61.49,32.08
238,1531.1,0.0500,-61.19,37.12
239,1548.8,0.0500,-61.89,22.14
240,1566.8,0.0500,-62.56,42.35
241,1584.9,0.0500,-62.18,29.13
242,1603.2,0.0500,-62.96,35.38
243,1621.8,0.0500,-60.67,39.89
244,1640.6,0.0500,-60.81,38.11
245,1659.6,0.0500,-60.80,42.35
246,1678.8,0.0500,-61.00,38.29
247,1698.2,0.0500,-61.33,34.09
248,1717.9,0.0500,-61.27,47.11
249,1737.8,0.0500,-61.22,41.74
250,1757.9,0.0500,-61.29,30.47
251,1778.3,0.0500,-60.09,42.59
252,1798.9,0.0500,-61.03,42.29
253,1819.7,0.0500,-60.42,42.54
254,1840.8,0.0500,-60.85,38.40
255,1862.1,0.0500,-60.98,46.17
256,1883.6,0.0500,-61.39,30.35
257,1905.5,0.0500,-60.46,49.24
258,1927.5,0.0500,-59.43,37.70
259,1949.8,0.0500,-60.32,36.89
260,1972.4,0.0500,-60.80,47.04
261,1995.3,0.0500,-60.88,48.81
262,2018.4,0.0500,-60.71,44.95
263,2041.7,0.0500,-61.56,39.12
264,2065.4,0.0500,-60.69,49.01
265,2089.3,0.0500,-60.55,45.29
266,2113.5,0.0500,-60.31,44.09
267,2138.0,0.0500,-60.40,46.23
268,2162.7,0.0500,-60.22,38.58
269,2187.8,0.0500,-60.20,44.57
270,2213.1,0.0500,-60.67,44.85
271,2238.7,0.0500,-59.81,46.58
272,2264.6,0.0500,-60.41,45.67
273,2290.9,0.0500,-60.03,43.57
274,2317.4,0.0500,-60.15,48.15
275,2344.2,0.0500,-60.56,47.12
276,2371.4,0.0500,-59.56,47.11
277,2398.8,0.0500,-60.11,37.15
278,2426.6,0.0500,-59.69,49.00
279,2454.7,0.0500,-59.90,47.50
280,2483.1,0.0500,-59.88,51.91
281,2511.9,0.0500,-60.13,40.73
282,2541.0,0.0500,-58.87,51.72
283,2570.4,0.0500,-59.21,55.76
284,2600.2,0.0500,-59.35,49.33
285,2630.3,0.0500,-59.49,49.76
286,2660.7,0.0500,-58.99,52.92
287,2691.5,0.0500,-59.82,50.38
288,2722.7,0.0500,-59.77,46.48
289,2754.2,0.0500,-59.46,52.89
290,2786.1,0.0500,-58.63,47.83
291,2818.4,0.0500,-59.01,51.84
292,2851.0,0.0500,-59.13,48.52
293,2884.0,0.0500,-58.71,49.33
294,2917.4,0.0500,-58.99,51.24
295,2951.2,0.0500,-58.87,50.84
296,2985.4,0.0500,-59.14,54.16
297,3020.0,0.0500,-59.19,51.59
298,3054.9,0.0500,-58.70,52.60
299,3090.3,0.0500,-57.91,56.31
300,3126.1,0.0500,-59.22,57.48
301,3162.3,0.0500,-58.80,53.32
302,3198.9,0.0500,-58.65,58.39
303,3235.9,0.0500,-58.20,54.34
304,3273.4,0.0500,-57.81,56.69
305,3311.3,0.0500,-58.58,56.36
306,3349.7,0.0500,-57.51,55.12
307,3388.4,0.0500,-58.15,57.50
308,3427.7,0.0500,-58.31,54.33
309,3467.4,0.0500,-57.58,60.11
310,3507.5,0.0500,-58.12,58.30
311,3548.1,0.0500,-58.13,56.46
312,3589.2,0.0500,-57.36,61.65
313,3630.8,0.0500,-57.18,57.40
314,3672.8,0.0500,-57.74,60.92
315,3715.4,0.0500,-56.59,54.77
316,3758.4,0.0500,-57.90,58.60
317,3801.9,0.0500,-57.14,48.96
318,3845.9,0.0500,-57.72,62.38
319,3890.5,0.0500,-57.45,58.26
320,3935.5,0.0500,-56.88,62.05
321,3981.1,0.0500,-57.72,61.38
322,4027.2,0.0500,-56.62,57.65
323,4073.8,0.0500,-57.24,58.63
324,4121.0,0.0500,-57.04,57.99
325,4168.7,0.0500,-57.40,57.71
326,4217.0,0.0500,-56.99,59.40
327,4265.8,0.0500,-56.31,62.05
328,4315.2,0.0500,-56.52,61.55
329,4365.2,0.0500,-56.00,59.82
330,4415.7,0.0500,-56.36,61.75
331,4466.8,0.0500,-56.21,62.41
332,4518.6,0.0500,-56.72,60.99
333,4570.9,0.0500,-56.64,64.36
334,4623.8,0.0500,-56.23,63.03
335,4677.4,0.0500,-56.62,58.85
336,4731.5,0.0500,-55.64,61.42
337,4786.3,0.0500,-55.74,64.39
338,4841.7,0.0500,-56.03,67.87
339,4897.8,0.0500,-55.94,64.70
340,4954.5,0.0500,-55.61,63.30
341,5011.9,0.0500,-54.76,60.45
342,5069.9,0.0500,-55.51,65.46
343,5128.6,0.0500,-54.95,65.85
344,5188.0,0.0500,-55.05,63.71
345,5248.1,0.0500,-55.01,65.27
346,5308.8,0.0500,-54.89,65.70
347,5370.3,0.0500,-54.92,66.43
348,5432.5,0.0500,-54.74,65.79
349,5495.4,0.0500,-54.34,64.12
350,5559.0,0.0500,-54.63,63.40
351,5623.4,0.0500,-54.48,67.24
352,5688.5,0.0500,-55.36,63.21
353,5754.4,0.0500,-54.87,66.42
354,5821.0,0.0500,-54.36,68.99
355,5888.4,0.0500,-54.25,68.74
356,5956.6,0.0500,-54.06,70.94
357,6025.6,0.0500,-53.88,71.30
358,6095.4,0.0500,-53.89,67.08
359,6166.0,0.0500,-53.59,68.04
360,6237.3,0.0500,-53.83,66.99
361,6309.6,0.0500,-53.70,68.15
362,6382.6,0.0500,-53.64,68.25
363,6456.5,0.0500,-53.86,69.77
364,6531.3,0.0500,-53.53,67.41
365,6606.9,0.0500,-53.58,68.48
366,6683.4,0.0500,-53.54,69.45
367,6760.8,0.0500,-53.57,69.39
368,6839.1,0.0500,-53.22,66.82
369,6918.3,0.0500,-53.29,71.52
370,6998.4,0.0500,-53.54,67.81
371,7079.5,0.0500,-52.87,70.07
372,7161.4,0.0500,-52.92,71.81
373,7244.4,0.0500,-52.85,70.31
374,7328.2,0.0500,-52.84,68.52
375,7413.1,0.0500,-52.37,70.92
376,7498.9,0.0500,-52.45,69.45
377,7585.8,0.0500,-52.32,68.84
378,7673.6,0.0500,-52.14,71.87
379,7762.5,0.0500,-51.96,72.99
380,7852.4,0.0500,-52.11,71.10
381,7943.3,0.0500,-51.80,71.65
382,8035.3,0.0500,-52.26,70.84
383,8128.3,0.0500,-52.09,70.85
384,8222.4,0.0500,-51.77,71.56
385,8317.6,0.0500,-51.50,71.46
386,8414.0,0.0500,-51.41,72.07
387,8511.4,0.0500,-51.49,70.61
388,8609.9,0.0500,-51.60,71.68
389,8709.6,0.0500,-51.29,71.67
390,8810.5,0.0500,-51.18,71.65
391,8912.5,0.0500,-51.24,71.54
392,9015.7,0.0500,-50.84,70.80
393,9120.1,0.0500,-50.84,72.58
394,9225.7,0.0500,-50.67,73.46
395,9332.5,0.0500,-50.75,75.24
396,9440.6,0.0500,-50.79,75.01
397,9549.9,0.0500,-50.63,73.80
398,9660.5,0.0500,-50.48,75.14
399,9772.4,0.0500,-50.36,74.74
400,9885.5,0.0500,-50.28,73.71
401,10000.0,0.0500,-50.34,74.44
402,10115.8,0.0500,-49.91,74.41
403,10232.9,0.0500,-50.14,73.63
404,10351.4,0.0500,-50.09,75.24
405,10471.3,0.0500,-49.98,74.17
406,10592.5,0.0500,-49.69,75.20
407,10715.2,0.0500,-49.65,75.53
408,10839.3,0.0500,-49.53,73.15
409,10964.8,0.0500,-49.47,75.51
410,11091.7,0.0500,-49.28,74.62
411,11220.2,0.0500,-49.17,75.34
412,11350.1,0.0500,-49.20,75.14
413,11481.5,0.0500,-49.11,74.50
414,11614.5,0.0500,-48.98,75.35
415,11749.0,0.0500,-48.81,75.10
416,11885.0,0.0500,-48.82,76.34
417,12022.6,0.0500,-48.52,76.84
418,12161.9,0.0500,-48.67,76.45
419,12302.7,0.0500,-48.42,76.45
420,12445.1,0.0500,-48.70,74.90
421,12589.3,0.0500,-48.46,75.41
422,12735.0,0.0500,-48.34,75.63
423,12882.5,0.0500,-48.25,77.08
424,13031.7,0.0500,-47.96,76.16
425,13182.6,0.0500,-47.94,77.56
426,13335.2,0.0500,-47.90,76.31
427,13489.6,0.0500,-47.92,75.78
428,13645.8,0.0500,-47.62,76.02
429,13803.8,0.0500,-47.35,77.16
430,13963.7,0.0500,-47.64,76.12
431,14125.4,0.0500,-47.26,76.05
432,14288.9,0.0500,-47.34,76.26
433,14454.4,0.0500,-47.24,76.62
434,14621.8,0.0500,-47.28,76.82
435,14791.1,0.0500,-47.01,77.24
436,14962.4,0.0500,-46.99,77.49
437,15135.6,0.0500,-46.85,76.27
438,15310.9,0.0500,-46.61,78.22
439,15488.2,0.0500,-46.89,77.54
440,15667.5,0.0500,-46.70,77.63
441,15848.9,0.0500,-46.66,77.76
442,16032.5,0.0500,-46.57,77.83
443,16218.1,0.0500,-46.30,77.53
444,16405.9,0.0500,-46.26,78.03
445,16595.9,0.0500,-46.11,77.94
446,16788.0,0.0500,-45.99,78.93
447,16982.4,0.0500,-45.92,77.79
448,17179.1,0.0500,-45.76,78.46
449,17378.0,0.0500,-45.74,77.94
450,17579.2,0.0500,-45.56,78.21
451,17782.8,0.0500,-45.57,77.78
452,17988.7,0.0500,-45.61,77.96
453,18197.0,0.0500,-45.41,77.48
454,18407.7,0.0500,-45.19,78.59
455,18620.9,0.0500,-45.26,78.75
456,18836.5,0.0500,-45.08,78.81
457,19054.6,0.0500,-45.00,77.35
458,19275.2,0.0500,-44.88,78.99
459,19498.4,0.0500,-44.65,78.78
460,19724.2,0.0500,-44.69,78.54
461,19952.6,0.0500,-44.78,77.56
462,20183.7,0.0500,-44.46,78.59
463,20417.4,0.0500,-44.63,78.43
464,20653.8,0.0500,-44.38,78.85
465,20893.0,0.0500,-44.30,78.77
466,21134.9,0.0500,-44.12,79.32
467,21379.6,0.0500,-44.10,79.75
468,21627.2,0.0500,-43.94,78.79
469,21877.6,0.0500,-43.85,79.11
470,22130.9,0.0500,-43.86,79.49
471,22387.2,0.0500,-43.67,78.41
472,22646.4,0.0500,-43.54,79.41
473,22908.7,0.0500,-43.46,78.98
474,23173.9,0.0500,-43.38,79.90
475,23442.3,0.0500,-43.26,78.79
476,23713.7,0.0500,-43.24,79.10
477,23988.3,0.0500,-43.09,79.09
478,24266.1,0.0500,-43.02,79.26
479,24547.1,0.0500,-42.95,79.08
480,24831.3,0.0500,-42.90,79.84
481,25118.9,0.0500,-42.65,79.64
482,25409.7,0.0500,-42.63,79.54
483,25704.0,0.0500,-42.54,79.28
484,26001.6,0.0500,-42.49,79.16
485,26302.7,0.0500,-42.30,79.88
486,26607.3,0.0500,-42.23,79.94
487,26915.3,0.0500,-42.22,80.77
488,27227.0,0.0500,-42.05,79.94
489,27542.3,0.0500,-42.03,79.13
490,27861.2,0.0500,-41.80,79.47
491,28183.8,0.0500,-41.78,80.07
492,28510.2,0.0500,-41.73,79.96
493,28840.3,0.0500,-41.56,79.67
494,29174.3,0.0500,-41.51,80.16
495,29512.1,0.0500,-41.40,80.21
496,29853.8,0.0500,-41.31,80.49
497,30199.5,0.0500,-41.24,80.11
498,30549.2,0.0500,-41.07,79.52
499,30903.0,0.0500,-41.04,80.36
500,31260.8,0.0500,-40.97,79.92
501,31622.8,0.0500,-40.83,79.70
502,31989.0,0.0500,-40.80,80.30
503,32359.4,0.0500,-40.64,80.18
504,32734.1,0.0500,-40.54,80.04
505,33113.1,0.0500,-40.51,80.49
506,33496.5,0.0500,-40.34,80.12
507,33884.4,0.0500,-40.25,80.31
508,34276.8,0.0500,-40.13,80.35
509,34673.7,0.0500,-40.04,79.98
510,35075.2,0.0500,-39.92,80.35
511,35481.3,0.0500,-39.84,80.33
512,35892.2,0.0500,-39.81,80.31
513,36307.8,0.0500,-39.84,80.08
514,36728.2,0.0500,-39.55,80.80
515,37153.5,0.0500,-39.46,80.20
516,37583.7,0.0500,-39.48,80.29
517,38018.9,0.0500,-39.32,80.25
518,38459.2,0.0500,-39.20,80.29
519,38904.5,0.0500,-39.14,80.21
520,39355.0,0.0500,-39.04,80.58
521,39810.7,0.0500,-38.90,80.41
522,40271.7,0.0500,-38.85,80.61
523,40738.0,0.0500,-38.75,80.08
524,41209.8,0.0500,-38.65,80.49
525,41686.9,0.0500,-38.55,80.56
526,42169.7,0.0500,-38.46,80.39
527,42658.0,0.0500,-38.34,80.55
528,43151.9,0.0500,-38.32,80.52
529,43651.6,0.0500,-38.21,80.71
530,44157.0,0.0500,-38.05,80.83
531,44668.4,0.0500,-37.94,80.46
532,45185.6,0.0500,-37.95,80.59
533,45708.8,0.0500,-37.77,80.50
534,46238.1,0.0500,-37.71,80.92
535,46773.5,0.0500,-37.60,80.63
536,47315.1,0.0500,-37.60,80.55
537,47863.0,0.0500,-37.42,80.54
538,48417.2,0.0500,-37.30,79.75
539,48977.9,0.0500,-37.21,80.68
540,49545.0,0.0500,-37.18,80.95
541,50118.7,0.0500,-36.99,80.66
542,50699.1,0.0500,-36.91,81.02
543,51286.1,0.0500,-36.80,81.12
544,51880.0,0.0500,-36.69,80.80
545,52480.7,0.0500,-36.57,80.49
546,53088.4,0.0500,-36.47,80.32
547,53703.2,0.0500,-36.34,79.98
548,54325.0,0.0500,-36.24,80.49
549,54954.1,0.0500,-36.27,80.15
550,55590.4,0.0500,-36.14,80.02
551,56234.1,0.0500,-36.00,80.47
552,56885.3,0.0500,-36.01,79.97
553,57544.0,0.0500,-35.91,80.37
554,58210.3,0.0500,-35.76,80.20
555,58884.4,0.0500,-35.66,81.01
556,59566.2,0.0500,-35.59,80.38
557,60256.0,0.0500,-35.55,80.52
558,60953.7,0.0500,-35.33,80.46
559,61659.5,0.0500,-35.27,79.91
560,62373.5,0.0500,-35.16,80.10
561,63095.7,0.0500,-35.14,80.20
562,63826.3,0.0500,-34.94,80.31
563,64565.4,0.0500,-34.92,80.02
564,65313.1,0.0500,-34.85,80.51
565,66069.3,0.0500,-34.71,79.89
566,66834.4,0.0500,-34.67,80.08
567,67608.3,0.0500,-34.55,81.19
568,68391.2,0.0500,-34.39,80.92
569,69183.1,0.0500,-34.30,80.99
570,69984.2,0.0500,-34.29,80.41
571,70794.6,0.0500,-34.10,80.12
572,71614.3,0.0500,-34.12,79.97
573,72443.6,0.0500,-33.99,80.15
574,73282.5,0.0500,-33.92,79.97
575,74131.0,0.0500,-33.79,80.11
576,74989.4,0.0500,-33.61,80.22
577,75857.8,0.0500,-33.60,80.28
578,76736.1,0.0500,-33.44,80.52
579,77624.7,0.0500,-33.37,80.32
580,78523.6,0.0500,-33.32,80.38
581,79432.8,0.0500,-33.19,80.38
582,80352.6,0.0500,-33.07,80.17
583,81283.1,0.0500,-32.89,79.94
584,82224.3,0.0500,-32.86,79.89
585,83176.4,0.0500,-32.79,80.09
586,84139.5,0.0500,-32.66,80.09
587,85113.8,0.0500,-32.54,80.71
588,86099.4,0.0500,-32.53,80.64
589,87096.4,0.0500,-32.37,80.49
590,88104.9,0.0500,-32.27,79.77
591,89125.1,0.0500,-32.16,80.18
592,90157.1,0.0500,-32.10,80.54
593,91201.1,0.0500,-31.98,80.22
594,92257.1,0.0500,-31.89,80.12
595,93325.4,0.0500,-31.72,80.11
596,94406.1,0.0500,-31.65,79.96
597,95499.3,0.0500,-31.57,80.04
598,96605.1,0.0500,-31.53,80.43
599,97723.7,0.0500,-31.41,80.12
600,98855.3,0.0500,-31.26,80.23
601,100000.0,0.0500,-31.17,79.87
602,101157.9,0.0500,-31.12,80.22
603,102329.3,0.0500,-30.99,80.02
604,103514.2,0.0500,-30.83,80.05
605,104712.9,0.0500,-30.76,80.38
606,105925.4,0.0500,-30.64,80.33
607,107151.9,0.0500,-30.47,80.14
608,108392.7,0.0500,-30.37,80.01
609,109647.8,0.0500,-30.26,79.75
610,110917.5,0.0500,-30.20,80.21
611,112201.8,0.0500,-30.04,80.28
612,113501.1,0.0500,-29.93,80.09
613,114815.4,0.0500,-29.96,79.92
614,116144.9,0.0500,-29.84,79.87
615,117489.8,0.0500,-29.65,79.79
616,118850.2,0.0500,-29.56,80.00
617,120226.4,0.0500,-29.40,80.01
618,121618.6,0.0500,-29.34,79.82
619,123026.9,0.0500,-29.28,79.84
620,124451.5,0.0500,-29.13,79.75
621,125892.5,0.0500,-29.04,79.94
622,127350.3,0.0500,-29.00,80.02
623,128825.0,0.0500,-28.80,79.93
624,130316.7,0.0500,-28.63,79.46
625,131825.7,0.0500,-28.53,79.44
626,133352.1,0.0500,-28.52,79.55
627,134896.3,0.0500,-28.38,79.22
628,136458.3,0.0500,-28.23,79.12
629,138038.4,0.0500,-28.06,79.35
630,139636.8,0.0500,-28.03,79.22
631,141253.8,0.0500,-27.96,79.13
632,142889.4,0.0500,-27.74,78.70
633,144544.0,0.0500,-27.65,79.23
634,146217.7,0.0500,-27.54,78.83
635,147910.8,0.0500,-27.39,78.98
636,149623.6,0.0500,-27.24,79.67
637,151356.1,0.0500,-26.94,78.59
638,153108.7,0.0500,-27.23,79.04
639,154881.7,0.0500,-26.96,78.63
640,156675.1,0.0500,-26.79,78.39
641,158489.3,0.0500,-26.78,78.58
642,160324.5,0.0500,-26.57,78.51
643,162181.0,0.0500,-26.37,78.93
644,164059.0,0.0500,-26.09,77.65
645,165958.7,0.0500,-26.11,78.67
646,167880.4,0.0500,-25.83,76.51
