#, Frequency (Hz), Amplitude (Vpp), Gain (dB), Phase (°)
1,100.0,0.0500,-63.92,-2.84
2,101.2,0.0500,-63.84,3.35
3,102.3,0.0500,-64.71,1.19
4,103.5,0.0500,-64.52,7.02
5,104.7,0.0500,-64.72,0.69
6,105.9,0.0500,-63.52,-0.06
7,107.2,0.0500,-63.76,-5.58
8,108.4,0.0500,-64.33,-2.08
9,109.6,0.0500,-63.39,-6.06
10,110.9,0.0500,-64.68,9.27
11,112.2,0.0500,-65.19,4.22
12,113.5,0.0500,-63.59,5.55
13,114.8,0.0500,-64.26,10.72
14,116.1,0.0500,-64.48,2.80
15,117.5,0.0500,-65.06,-4.44
16,118.9,0.0500,-64.66,1.91
17,120.2,0.0500,-64.75,3.12
18,121.6,0.0500,-64.32,-1.61
19,123.0,0.0500,-64.07,0.18
20,124.5,0.0500,-63.95,-2.77
21,125.9,0.0500,-63.69,-4.56
22,127.4,0.0500,-63.26,-1.55
23,128.8,0.0500,-63.78,3.10
24,130.3,0.0500,-64.77,11.30
25,131.8,0.0500,-63.61,-2.95
26,133.4,0.0500,-64.36,-0.66
27,134.9,0.0500,-63.60,8.57
28,136.5,0.0500,-64.35,3.56
29,138.0,0.0500,-64.01,1.07
30,139.6,0.0500,-64.37,-1.52
31,141.3,0.0500,-63.04,6.10
32,142.9,0.0500,-63.41,0.63
33,144.5,0.0500,-63.70,-4.43
34,146.2,0.0500,-63.15,0.96
35,147.9,0.0500,-63.40,4.11
36,149.6,0.0500,-63.32,1.64
37,151.4,0.0500,-63.66,-0.40
38,153.1,0.0500,-62.89,7.80
39,154.9,0.0500,-63.47,3.92
40,156.7,0.0500,-63.91,-2.02
41,158.5,0.0500,-63.25,1.95
42,160.3,0.0500,-64.81,-4.82
43,162.2,0.0500,-63.22,4.51
44,164.1,0.0500,-63.55,6.60
45,166.0,0.0500,-64.33,2.41
46,167.9,0.0500,-64.42,1.33
47,169.8,0.0500,-63.90,2.00
48,171.8,0.0500,-63.11,-4.51
49,173.8,0.0500,-63.73,8.69
50,175.8,0.0500,-64.67,4.98
51,177.8,0.0500,-63.72,4.50
52,179.9,0.0500,-63.67,1.30
53,182.0,0.0500,-62.84,2.91
54,184.1,0.0500,-62.56,-2.20
55,186.2,0.0500,-63.29,3.34
56,188.4,0.0500,-64.30,0.64
57,190.5,0.0500,-62.59,5.98
58,192.8,0.0500,-63.36,4.54
59,195.0,0.0500,-64.83,7.17
60,197.2,0.0500,-63.77,3.98
61,199.5,0.0500,-63.13,6.19
62,201.8,0.0500,-62.83,-0.45
63,204.2,0.0500,-62.85,9.22
64,206.5,0.0500,-64.99,-2.34
65,208.9,0.0500,-62.98,-0.64
66,211.3,0.0500,-64.25,5.77
67,213.8,0.0500,-64.23,-3.29
68,216.3,0.0500,-63.28,1.89
69,218.8,0.0500,-63.96,-0.72
70,221.3,0.0500,-62.66,6.72
71,223.9,0.0500,-63.68,4.72
72,226.5,0.0500,-64.02,7.26
73,229.1,0.0500,-63.98,3.56
74,231.7,0.0500,-64.36,0.38
75,234.4,0.0500,-62.84,2.62
76,237.1,0.0500,-63.70,6.65
77,239.9,0.0500,-63.93,5.15
78,242.7,0.0500,-64.70,2.72
79,245.5,0.0500,-63.08,5.47
80,248.3,0.0500,-63.79,6.51
81,251.2,0.0500,-64.15,7.33
82,254.1,0.0500,-63.78,1.85
83,257.0,0.0500,-62.87,10.28
84,260.0,0.0500,-62.98,-0.29
85,263.0,0.0500,-64.28,3.27
86,266.1,0.0500,-63.14,6.99
87,269.2,0.0500,-64.29,3.56
88,272.3,0.0500,-64.24,7.60
89,275.4,0.0500,-63.77,7.08
90,278.6,0.0500,-62.92,-0.92
91,281.8,0.0500,-63.68,2.10
92,285.1,0.0500,-64.47,8.77
93,288.4,0.0500,-63.63,-0.09
94,291.7,0.0500,-64.20,5.39
95,295.1,0.0500,-63.54,10.48
96,298.5,0.0500,-63.30,6.51
97,302.0,0.0500,-62.85,7.01
98,305.5,0.0500,-63.10,4.44
99,309.0,0.0500,-62.84,4.72
100,312.6,0.0500,-64.42,-0.03
101,316.2,0.0500,-63.27,9.68
102,319.9,0.0500,-62.97,1.78
103,323.6,0.0500,-62.80,7.24
104,327.3,0.0500,-63.51,9.75
105,331.1,0.0500,-62.58,4.07
106,335.0,0.0500,-64.29,7.10
107,338.8,0.0500,-62.93,4.78
108,342.8,0.0500,-64.86,0.35
109,346.7,0.0500,-63.83,9.02
110,350.8,0.0500,-63.39,5.47
111,354.8,0.0500,-62.09,10.09
112,358.9,0.0500,-63.68,6.10
113,363.1,0.0500,-63.44,-2.43
114,367.3,0.0500,-63.47,3.54
115,371.5,0.0500,-63.56,3.05
116,375.8,0.0500,-64.09,5.27
117,380.2,0.0500,-63.15,6.16
118,384.6,0.0500,-63.15,0.87
119,389.0,0.0500,-63.58,4.48
120,393.6,0.0500,-63.38,10.79
121,398.1,0.0500,-63.22,8.31
122,402.7,0.0500,-64.29,10.19
123,407.4,0.0500,-63.54,4.64
124,412.1,0.0500,-63.02,8.05
125,416.9,0.0500,-63.06,10.88
126,421.7,0.0500,-63.74,9.91
127,426.6,0.0500,-63.58,9.07
128,431.5,0.0500,-63.06,4.68
129,436.5,0.0500,-63.14,6.05
130,441.6,0.0500,-63.04,8.61
131,446.7,0.0500,-62.65,11.54
132,451.9,0.0500,-64.31,6.35
133,457.1,0.0500,-63.70,15.93
134,462.4,0.0500,-63.24,8.07
135,467.7,0.0500,-63.98,6.08
136,473.2,0.0500,-63.07,9.66
137,478.6,0.0500,-63.14,7.45
138,484.2,0.0500,-62.98,5.66
139,489.8,0.0500,-63.52,8.90
140,495.5,0.0500,-62.57,10.46
141,501.2,0.0500,-63.37,3.71
142,507.0,0.0500,-63.75,12.91
143,512.9,0.0500,-61.73,12.19
144,518.8,0.0500,-63.16,10.60
145,524.8,0.0500,-63.41,7.32
146,530.9,0.0500,-62.99,7.45
147,537.0,0.0500,-63.04,5.11
148,543.3,0.0500,-62.58,7.12
149,549.5,0.0500,-63.72,12.99
150,555.9,0.0500,-63.35,10.37
151,562.3,0.0500,-62.90,8.34
152,568.9,0.0500,-63.22,7.96
153,575.4,0.0500,-62.77,12.64
154,582.1,0.0500,-63.12,10.07
155,588.8,0.0500,-62.44,9.69
156,595.7,0.0500,-62.71,6.59
157,602.6,0.0500,-63.27,4.65
158,609.5,0.0500,-63.59,9.57
159,616.6,0.0500,-62.83,11.70
160,623.7,0.0500,-63.15,11.53
161,631.0,0.0500,-63.09,15.79
162,638.3,0.0500,-63.67,9.99
163,645.7,0.0500,-62.68,13.89
164,653.1,0.0500,-63.60,11.77
165,660.7,0.0500,-63.15,13.24
166,668.3,0.0500,-63.25,6.78
167,676.1,0.0500,-63.04,8.64
168,683.9,0.0500,-63.32,12.83
169,691.8,0.0500,-63.73,8.96
170,699.8,0.0500,-63.15,16.44
171,707.9,0.0500,-63.71,5.35
172,716.1,0.0500,-62.62,12.80
173,724.4,0.0500,-62.78,22.82
174,732.8,0.0500,-62.58,10.75
175,741.3,0.0500,-62.78,14.37
176,749.9,0.0500,-62.75,12.06
177,758.6,0.0500,-63.10,20.25
178,767.4,0.0500,-62.92,8.79
179,776.2,0.0500,-62.51,12.23
180,785.2,0.0500,-62.65,4.41
181,794.3,0.0500,-60.84,22.01
182,803.5,0.0500,-63.52,12.24
183,812.8,0.0500,-62.85,14.50
184,822.2,0.0500,-62.98,9.98
185,831.8,0.0500,-62.53,15.38
186,841.4,0.0500,-62.88,15.09
187,851.1,0.0500,-62.02,14.26
188,861.0,0.0500,-62.71,9.50
189,871.0,0.0500,-62.09,16.24
190,881.0,0.0500,-62.71,12.42
191,891.3,0.0500,-62.27,14.20
192,901.6,0.0500,-62.56,15.84
193,912.0,0.0500,-62.54,18.57
194,922.6,0.0500,-61.81,14.13
195,933.3,0.0500,-62.31,15.72
196,944.1,0.0500,-63.19,14.95
197,955.0,0.0500,-62.72,12.87
198,966.1,0.0500,-63.12,19.20
199,977.2,0.0500,-62.49,19.77
200,988.6,0.0500,-63.12,18.20
201,1000.0,0.0500,-63.41,13.47
202,1011.6,0.0500,-62.72,22.28
203,1023.3,0.0500,-62.86,9.90
204,1035.1,0.0500,-62.57,18.16
205,1047.1,0.0500,-61.81,16.34
206,1059.3,0.0500,-61.71,22.07
207,1071.5,0.0500,-62.80,18.99
208,1083.9,0.0500,-62.65,22.28
209,1096.5,0.0500,-62.51,15.83
210,1109.2,0.0500,-61.75,17.61
211,1122.0,0.0500,-63.21,24.35
212,1135.0,0.0500,-61.58,14.87
213,1148.2,0.0500,-62.27,18.13
214,1161.4,0.0500,-62.68,20.13
215,1174.9,0.0500,-61.79,23.84
216,1188.5,0.0500,-61.93,22.74
217,1202.3,0.0500,-61.99,20.75
218,1216.2,0.0500,-62.22,15.94
219,1230.3,0.0500,-63.23,23.53
220,1244.5,0.0500,-62.89,23.49
221,1258.9,0.0500,-61.80,23.42
222,1273.5,0.0500,-62.53,25.63
223,1288.2,0.0500,-62.36,14.30
224,1303.2,0.0500,-62.53,22.24
225,1318.3,0.0500,-62.67,20.33
226,1333.5,0.0500,-61.77,18.34
227,1349.0,0.0500,-62.18,20.26
228,1364.6,0.0500,-61.84,22.57
229,1380.4,0.0500,-63.36,19.63
230,1396.4,0.0500,-62.88,22.00
231,1412.5,0.0500,-62.21,13.33
232,1428.9,0.0500,-63.02,18.99
233,1445.4,0.0500,-62.13,23.66
234,1462.2,0.0500,-61.54,24.16
235,1479.1,0.0500,-61.57,30.18
236,1496.2,0.0500,-61.93,23.13
237,1513.6,0.0500,-61.92,24.77
238,1531.1,0.0500,-60.87,38.36
239,1548.8,0.0500,-61.98,41.43
240,1566.8,0.0500,-62.16,34.06
241,1584.9,0.0500,-62.59,32.38
242,1603.2,0.0500,-62.02,23.09
243,1621.8,0.0500,-62.09,24.33
244,1640.6,0.0500,-62.05,32.45
245,1659.6,0.0500,-63.25,32.72
246,1678.8,0.0500,-61.94,24.07
247,1698.2,0.0500,-62.13,23.71
248,1717.9,0.0500,-59.99,39.06
249,1737.8,0.0500,-61.74,26.23
250,1757.9,0.0500,-62.22,29.73
251,1778.3,0.0500,-61.48,27.14
252,1798.9,0.0500,-61.03,23.08
253,1819.7,0.0500,-60.65,35.55
254,1840.8,0.0500,-61.99,33.08
255,1862.1,0.0500,-61.30,25.23
256,1883.6,0.0500,-62.51,24.21
257,1905.5,0.0500,-62.88,33.68
258,1927.5,0.0500,-62.10,28.92
259,1949.8,0.0500,-60.62,29.64
260,1972.4,0.0500,-63.31,34.18
261,1995.3,0.0500,-61.41,22.61
262,2018.4,0.0500,-61.12,33.54
263,2041.7,0.0500,-61.39,28.32
264,2065.4,0.0500,-61.50,30.33
265,2089.3,0.0500,-61.31,28.09
266,2113.5,0.0500,-60.99,37.50
267,2138.0,0.0500,-61.89,27.83
268,2162.7,0.0500,-60.82,36.86
269,2187.8,0.0500,-61.59,33.07
270,2213.1,0.0500,-61.11,31.76
271,2238.7,0.0500,-60.89,33.01
272,2264.6,0.0500,-61.39,39.62
273,2290.9,0.0500,-61.74,35.87
274,2317.4,0.0500,-60.42,34.72
275,2344.2,0.0500,-60.69,36.23
276,2371.4,0.0500,-60.87,36.74
277,2398.8,0.0500,-61.85,37.92
278,2426.6,0.0500,-60.58,35.42
279,2454.7,0.0500,-60.12,33.91
280,2483.1,0.0500,-61.15,31.29
281,2511.9,0.0500,-60.42,39.41
282,2541.0,0.0500,-60.09,38.35
283,2570.4,0.0500,-61.15,38.01
284,2600.2,0.0500,-60.46,31.31
285,2630.3,0.0500,-61.53,36.83
286,2660.7,0.0500,-61.22,32.72
287,2691.5,0.0500,-60.87,37.72
288,2722.7,0.0500,-60.08,36.04
289,2754.2,0.0500,-60.86,37.61
290,2786.1,0.0500,-60.07,34.94
291,2818.4,0.0500,-60.67,39.76
292,2851.0,0.0500,-60.71,37.22
293,2884.0,0.0500,-59.93,40.18
294,2917.4,0.0500,-60.52,37.25
295,2951.2,0.0500,-59.86,38.80
296,2985.4,0.0500,-59.84,37.63
297,3020.0,0.0500,-61.18,39.18
298,3054.9,0.0500,-59.79,43.94
299,3090.3,0.0500,-60.48,42.02
300,3126.1,0.0500,-60.46,41.35
301,3162.3,0.0500,-60.17,42.46
302,3198.9,0.0500,-60.20,47.51
303,3235.9,0.0500,-59.84,40.28
304,3273.4,0.0500,-59.59,42.77
305,3311.3,0.0500,-59.97,40.55
306,3349.7,0.0500,-59.35,43.10
307,3388.4,0.0500,-59.71,48.32
308,3427.7,0.0500,-60.26,49.44
309,3467.4,0.0500,-59.63,38.68
310,3507.5,0.0500,-59.45,34.89
311,3548.1,0.0500,-59.68,43.07
312,3589.2,0.0500,-59.05,46.24
313,3630.8,0.0500,-58.77,41.66
314,3672.8,0.0500,-59.16,46.25
315,3715.4,0.0500,-59.59,48.89
316,3758.4,0.0500,-59.52,38.27
317,3801.9,0.0500,-59.58,46.72
318,3845.9,0.0500,-59.26,50.12
319,3890.5,0.0500,-59.67,46.05
320,3935.5,0.0500,-58.64,47.25
321,3981.1,0.0500,-59.84,48.57
322,4027.2,0.0500,-58.72,52.26
323,4073.8,0.0500,-59.09,49.88
324,4121.0,0.0500,-59.21,49.86
325,4168.7,0.0500,-58.75,44.36
326,4217.0,0.0500,-58.65,46.48
327,4265.8,0.0500,-58.88,47.37
328,4315.2,0.0500,-58.40,48.73
329,4365.2,0.0500,-57.91,52.74
330,4415.7,0.0500,-58.62,51.43
331,4466.8,0.0500,-58.67,50.16
332,4518.6,0.0500,-58.65,47.37
333,4570.9,0.0500,-58.27,50.67
334,4623.8,0.0500,-58.62,56.88
335,4677.4,0.0500,-58.00,49.37
336,4731.5,0.0500,-58.48,55.52
337,4786.3,0.0500,-57.21,51.96
338,4841.7,0.0500,-57.49,52.17
339,4897.8,0.0500,-57.86,54.27
340,4954.5,0.0500,-58.20,51.79
341,5011.9,0.0500,-57.61,52.21
342,5069.9,0.0500,-57.71,52.06
343,5128.6,0.0500,-57.22,50.23
344,5188.0,0.0500,-56.91,58.01
345,5248.1,0.0500,-57.57,54.45
346,5308.8,0.0500,-57.71,52.55
347,5370.3,0.0500,-57.94,55.73
348,5432.5,0.0500,-57.46,55.86
349,5495.4,0.0500,-57.29,55.24
350,5559.0,0.0500,-56.98,58.11
351,5623.4,0.0500,-57.14,55.26
352,5688.5,0.0500,-57.28,55.83
353,5754.4,0.0500,-56.87,54.22
354,5821.0,0.0500,-57.39,54.96
355,5888.4,0.0500,-56.96,56.10
356,5956.6,0.0500,-56.54,56.21
357,6025.6,0.0500,-56.69,59.22
358,6095.4,0.0500,-55.85,56.07
359,6166.0,0.0500,-56.56,60.24
360,6237.3,0.0500,-56.48,56.77
361,6309.6,0.0500,-56.32,61.54
362,6382.6,0.0500,-55.68,57.32
363,6456.5,0.0500,-56.10,60.25
364,6531.3,0.0500,-56.30,59.62
365,6606.9,0.0500,-56.04,61.09
366,6683.4,0.0500,-55.68,58.77
367,6760.8,0.0500,-55.93,57.21
368,6839.1,0.0500,-55.66,61.74
369,6918.3,0.0500,-55.66,59.89
370,6998.4,0.0500,-55.63,62.78
371,7079.5,0.0500,-55.68,61.34
372,7161.4,0.0500,-55.71,60.57
373,7244.4,0.0500,-55.44,61.73
374,7328.2,0.0500,-55.40,62.90
375,7413.1,0.0500,-55.42,59.31
376,7498.9,0.0500,-55.15,64.37
377,7585.8,0.0500,-54.66,62.90
378,7673.6,0.0500,-55.01,60.39
379,7762.5,0.0500,-54.49,60.09
380,7852.4,0.0500,-54.50,63.86
381,7943.3,0.0500,-54.78,64.18
382,8035.3,0.0500,-54.61,66.56
383,8128.3,0.0500,-54.45,63.27
384,8222.4,0.0500,-54.61,62.47
385,8317.6,0.0500,-53.83,62.81
386,8414.0,0.0500,-54.74,64.92
387,8511.4,0.0500,-54.10,64.33
388,8609.9,0.0500,-54.28,65.37
389,8709.6,0.0500,-54.05,64.15
390,8810.5,0.0500,-54.11,65.71
391,8912.5,0.0500,-53.78,65.19
392,9015.7,0.0500,-53.78,69.53
393,9120.1,0.0500,-53.87,66.59
394,9225.7,0.0500,-53.78,66.29
395,9332.5,0.0500,-53.69,65.87
396,9440.6,0.0500,-53.59,67.38
397,9549.9,0.0500,-53.29,68.21
398,9660.5,0.0500,-53.16,65.44
399,9772.4,0.0500,-53.31,66.37
400,9885.5,0.0500,-53.12,69.27
401,10000.0,0.0500,-52.80,69.75
402,10115.8,0.0500,-52.71,67.47
403,10232.9,0.0500,-52.58,66.99
404,10351.4,0.0500,-52.90,67.74
405,10471.3,0.0500,-52.79,68.04
406,10592.5,0.0500,-52.65,68.16
407,10715.2,0.0500,-52.43,67.67
408,10839.3,0.0500,-52.51,67.70
409,10964.8,0.0500,-52.35,69.38
410,11091.7,0.0500,-52.60,67.16
411,11220.2,0.0500,-52.09,68.62
412,11350.1,0.0500,-52.07,67.17
413,11481.5,0.0500,-52.03,69.33
414,11614.5,0.0500,-51.69,70.76
415,11749.0,0.0500,-51.77,69.42
416,11885.0,0.0500,-51.71,69.79
417,12022.6,0.0500,-51.65,67.77
418,12161.9,0.0500,-51.45,69.07
419,12302.7,0.0500,-51.23,71.24
420,12445.1,0.0500,-51.44,70.04
421,12589.3,0.0500,-51.37,70.34
422,12735.0,0.0500,-51.42,70.74
423,12882.5,0.0500,-51.07,70.72
424,13031.7,0.0500,-51.01,70.57
425,13182.6,0.0500,-51.32,70.66
426,13335.2,0.0500,-50.92,72.23
427,13489.6,0.0500,-50.95,71.53
428,13645.8,0.0500,-50.63,71.48
429,13803.8,0.0500,-50.66,71.71
430,13963.7,0.0500,-50.68,71.24
431,14125.4,0.0500,-50.44,71.91
432,14288.9,0.0500,-50.16,72.52
433,14454.4,0.0500,-50.23,71.66
434,14621.8,0.0500,-50.30,71.81
435,14791.1,0.0500,-50.33,72.91
436,14962.4,0.0500,-50.18,73.40
437,15135.6,0.0500,-49.90,70.45
438,15310.9,0.0500,-49.90,73.01
439,15488.2,0.0500,-49.76,73.02
440,15667.5,0.0500,-49.65,72.90
441,15848.9,0.0500,-49.72,73.79
442,16032.5,0.0500,-49.68,73.78
443,16218.1,0.0500,-49.48,73.45
444,16405.9,0.0500,-49.35,74.38
445,16595.9,0.0500,-49.14,72.93
446,16788.0,0.0500,-49.00,68.01
447,16982.4,0.0500,-49.16,73.70
448,17179.1,0.0500,-49.00,71.84
449,17378.0,0.0500,-48.75,73.83
450,17579.2,0.0500,-48.67,74.76
451,17782.8,0.0500,-48.68,73.29
452,17988.7,0.0500,-48.62,73.99
453,18197.0,0.0500,-48.55,73.97
454,18407.7,0.0500,-48.48,75.32
455,18620.9,0.0500,-48.31,74.17
456,18836.5,0.0500,-48.25,73.99
457,19054.6,0.0500,-48.29,74.84
458,19275.2,0.0500,-48.37,75.77
459,19498.4,0.0500,-47.97,74.06
460,19724.2,0.0500,-47.73,74.82
461,19952.6,0.0500,-47.84,74.56
462,20183.7,0.0500,-47.68,74.16
463,20417.4,0.0500,-47.69,75.09
464,20653.8,0.0500,-47.51,75.94
465,20893.0,0.0500,-47.51,75.58
466,21134.9,0.0500,-47.31,75.96
467,21379.6,0.0500,-47.27,76.55
468,21627.2,0.0500,-47.19,75.37
469,21877.6,0.0500,-47.22,74.89
470,22130.9,0.0500,-47.24,75.70
471,22387.2,0.0500,-46.82,75.74
472,22646.4,0.0500,-46.74,76.13
473,22908.7,0.0500,-46.58,76.03
474,23173.9,0.0500,-46.58,76.24
475,23442.3,0.0500,-46.54,76.31
476,23713.7,0.0500,-46.52,76.12
477,23988.3,0.0500,-46.41,76.88
478,24266.1,0.0500,-46.23,76.24
479,24547.1,0.0500,-46.20,77.05
480,24831.3,0.0500,-45.99,76.79
481,25118.9,0.0500,-46.00,77.02
482,25409.7,0.0500,-45.84,76.87
483,25704.0,0.0500,-45.88,77.04
484,26001.6,0.0500,-45.75,76.91
485,26302.7,0.0500,-45.52,76.95
486,26607.3,0.0500,-45.54,76.82
487,26915.3,0.0500,-45.38,76.81
488,27227.0,0.0500,-45.25,77.17
489,27542.3,0.0500,-45.18,76.94
490,27861.2,0.0500,-45.22,77.26
491,28183.8,0.0500,-45.10,77.34
492,28510.2,0.0500,-44.91,77.43
493,28840.3,0.0500,-44.83,77.62
494,29174.3,0.0500,-44.71,77.11
495,29512.1,0.0500,-44.69,78.36
496,29853.8,0.0500,-44.63,77.75
497,30199.5,0.0500,-44.36,77.67
498,30549.2,0.0500,-44.29,77.55
499,30903.0,0.0500,-44.34,78.08
500,31260.8,0.0500,-44.15,77.77
501,31622.8,0.0500,-44.12,78.10
502,31989.0,0.0500,-44.02,78.57
503,32359.4,0.0500,-43.86,77.22
504,32734.1,0.0500,-43.83,78.44
505,33113.1,0.0500,-43.73,78.22
506,33496.5,0.0500,-43.59,77.76
507,33884.4,0.0500,-43.59,78.30
508,34276.8,0.0500,-43.29,79.01
509,34673.7,0.0500,-43.38,78.28
510,35075.2,0.0500,-42.96,76.79
511,35481.3,0.0500,-43.08,77.86
512,35892.2,0.0500,-43.03,78.43
513,36307.8,0.0500,-42.98,79.05
514,36728.2,0.0500,-42.93,79.29
515,37153.5,0.0500,-42.79,78.30
516,37583.7,0.0500,-42.68,79.29
517,38018.9,0.0500,-42.51,78.89
518,38459.2,0.0500,-42.50,79.06
519,38904.5,0.0500,-42.39,78.57
520,39355.0,0.0500,-42.22,79.17
521,39810.7,0.0500,-42.33,79.74
522,40271.7,0.0500,-42.19,79.28
523,40738.0,0.0500,-41.97,79.16
524,41209.8,0.0500,-41.89,79.05
525,41686.9,0.0500,-41.91,78.65
526,42169.7,0.0500,-41.80,79.12
527,42658.0,0.0500,-41.58,79.55
528,43151.9,0.0500,-41.57,79.20
529,43651.6,0.0500,-41.41,79.33
530,44157.0,0.0500,-41.32,79.43
531,44668.4,0.0500,-41.36,79.04
532,45185.6,0.0500,-41.17,79.53
533,45708.8,0.0500,-41.05,79.37
534,46238.1,0.0500,-40.92,79.15
535,46773.5,0.0500,-40.92,79.40
536,47315.1,0.0500,-40.70,79.54
537,47863.0,0.0500,-40.61,80.13
538,48417.2,0.0500,-40.58,80.20
539,48977.9,0.0500,-40.54,80.44
540,49545.0,0.0500,-40.37,78.67
541,50118.7,0.0500,-40.31,80.74
542,50699.1,0.0500,-40.14,80.62
543,51286.1,0.0500,-40.05,79.13
544,51880.0,0.0500,-39.88,78.24
545,52480.7,0.0500,-39.95,79.72
546,53088.4,0.0500,-39.81,79.94
547,53703.2,0.0500,-39.67,79.71
548,54325.0,0.0500,-39.58,79.75
549,54954.1,0.0500,-39.42,79.68
550,55590.4,0.0500,-39.30,79.51
551,56234.1,0.0500,-39.25,78.79
552,56885.3,0.0500,-39.38,79.92
553,57544.0,0.0500,-39.20,80.68
554,58210.3,0.0500,-39.14,80.45
555,58884.4,0.0500,-38.92,80.11
556,59566.2,0.0500,-38.78,79.94
557,60256.0,0.0500,-38.73,79.97
558,60953.7,0.0500,-38.73,79.27
559,61659.5,0.0500,-38.50,79.79
560,62373.5,0.0500,-38.43,78.58
561,63095.7,0.0500,-38.46,79.78
562,63826.3,0.0500,-38.46,80.07
563,64565.4,0.0500,-38.16,80.98
564,65313.1,0.0500,-38.11,79.55
565,66069.3,0.0500,-37.69,78.72
566,66834.4,0.0500,-37.92,79.87
567,67608.3,0.0500,-37.75,80.25
568,68391.2,0.0500,-37.69,78.91
569,69183.1,0.0500,-37.49,79.56
570,69984.2,0.0500,-37.52,80.52
571,70794.6,0.0500,-37.42,79.20
572,71614.3,0.0500,-37.48,78.74
573,72443.6,0.0500,-37.22,79.66
574,73282.5,0.0500,-37.10,79.97
575,74131.0,0.0500,-36.89,80.06
576,74989.4,0.0500,-36.96,79.92
577,75857.8,0.0500,-36.85,80.47
578,76736.1,0.0500,-36.68,80.27
579,77624.7,0.0500,-36.63,79.66
580,78523.6,0.0500,-36.39,80.07
581,79432.8,0.0500,-36.36,79.73
582,80352.6,0.0500,-36.31,79.97
583,81283.1,0.0500,-36.29,81.38
584,82224.3,0.0500,-36.10,80.19
585,83176.4,0.0500,-36.02,80.43
586,84139.5,0.0500,-35.90,80.19
587,85113.8,0.0500,-35.92,80.03
588,86099.4,0.0500,-35.81,79.43
589,87096.4,0.0500,-35.63,79.85
590,88104.9,0.0500,-35.58,80.01
591,89125.1,0.0500,-35.40,79.99
592,90157.1,0.0500,-35.49,80.89
593,91201.1,0.0500,-35.28,79.23
594,92257.1,0.0500,-35.20,80.52
595,93325.4,0.0500,-35.16,79.04
596,94406.1,0.0500,-34.93,80.23
597,95499.3,0.0500,-34.84,79.87
598,96605.1,0.0500,-34.82,79.93
599,97723.7,0.0500,-34.60,79.96
600,98855.3,0.0500,-34.59,79.95
601,100000.0,0.0500,-34.50,80.80
602,101157.9,0.0500,-34.25,80.94
603,102329.3,0.0500,-34.29,80.23
604,103514.2,0.0500,-34.17,79.54
605,104712.9,0.0500,-34.05,79.79
606,105925.4,0.0500,-33.90,80.69
607,107151.9,0.0500,-33.93,79.93
608,108392.7,0.0500,-33.71,79.33
609,109647.8,0.0500,-33.60,80.13
610,110917.5,0.0500,-33.60,79.90
611,112201.8,0.0500,-33.44,79.68
612,113501.1,0.0500,-33.37,79.96
613,114815.4,0.0500,-33.23,80.07
614,116144.9,0.0500,-33.17,79.73
615,117489.8,0.0500,-32.98,80.81
616,118850.2,0.0500,-32.80,79.81
617,120226.4,0.0500,-32.83,79.71
618,121618.6,0.0500,-32.66,79.61
619,123026.9,0.0500,-32.62,79.40
620,124451.5,0.0500,-32.70,79.23
621,125892.5,0.0500,-32.33,79.64
622,127350.3,0.0500,-32.39,80.32
623,128825.0,0.0500,-32.10,79.70
624,130316.7,0.0500,-32.18,79.36
625,131825.7,0.0500,-31.91,78.26
626,133352.1,0.0500,-31.79,80.98
627,134896.3,0.0500,-31.97,79.25
628,136458.3,0.0500,-31.68,79.58
629,138038.4,0.0500,-31.48,79.68
630,139636.8,0.0500,-31.43,79.87
631,141253.8,0.0500,-31.32,79.40
632,142889.4,0.0500,-31.22,79.35
633,144544.0,0.0500,-31.12,79.48
634,146217.7,0.0500,-30.98,79.27
635,147910.8,0.0500,-30.61,78.33
636,149623.6,0.0500,-30.58,78.73
637,151356.1,0.0500,-30.64,79.50
638,153108.7,0.0500,-30.48,78.54
639,154881.7,0.0500,-30.40,78.90
640,156675.1,0.0500,-30.33,79.06
641,158489.3,0.0500,-30.16,78.75
642,160324.5,0.0500,-30.03,78.92
643,162181.0,0.0500,-29.89,79.01
644,164059.0,0.0500,-30.14,82.62
645,165958.7,0.0500,-29.97,77.64
646,167880.4,0.0500,-29.56,82.47
647,169824.4,0.0500,-29.55,78.83
