#, Frequency (Hz), Amplitude (Vpp), Gain (dB), Phase (°)
1,100.0,0.0500,-67.30,5.58
2,101.2,0.0500,-68.07,-2.03
3,102.3,0.0500,-68.55,5.43
4,103.5,0.0500,-70.70,-22.90
5,104.7,0.0500,-68.81,2.27
6,105.9,0.0500,-70.54,-6.25
7,107.2,0.0500,-67.63,-7.28
8,108.4,0.0500,-67.63,-7.88
9,109.6,0.0500,-67.89,-2.10
10,110.9,0.0500,-67.81,-0.69
11,112.2,0.0500,-69.82,-6.14
12,113.5,0.0500,-67.14,-5.74
13,114.8,0.0500,-67.24,-1.32
14,116.1,0.0500,-68.58,4.74
15,117.5,0.0500,-67.15,3.54
16,118.9,0.0500,-66.93,-4.85
17,120.2,0.0500,-69.42,-7.21
18,121.6,0.0500,-68.63,1.63
19,123.0,0.0500,-68.31,3.51
20,124.5,0.0500,-68.89,0.62
21,125.9,0.0500,-69.67,-2.00
22,127.4,0.0500,-69.13,-0.64
23,128.8,0.0500,-68.42,-8.37
24,130.3,0.0500,-69.88,4.70
25,131.8,0.0500,-68.01,3.16
26,133.4,0.0500,-67.91,1.67
27,134.9,0.0500,-67.32,2.03
28,136.5,0.0500,-68.40,-12.21
29,138.0,0.0500,-68.78,-0.45
30,139.6,0.0500,-67.93,10.47
31,141.3,0.0500,-67.41,1.70
32,142.9,0.0500,-67.12,-5.59
33,144.5,0.0500,-69.27,3.57
34,146.2,0.0500,-67.32,5.53
35,147.9,0.0500,-68.66,4.70
36,149.6,0.0500,-68.41,1.89
37,151.4,0.0500,-69.51,-5.24
38,153.1,0.0500,-68.01,-8.04
39,154.9,0.0500,-67.32,11.88
40,156.7,0.0500,-68.88,0.68
41,158.5,0.0500,-68.74,0.69
42,160.3,0.0500,-67.44,0.75
43,162.2,0.0500,-69.19,-6.35
44,164.1,0.0500,-67.78,1.97
45,166.0,0.0500,-68.70,7.47
46,167.9,0.0500,-67.97,5.02
47,169.8,0.0500,-67.56,1.67
48,171.8,0.0500,-67.30,-3.82
49,173.8,0.0500,-68.97,7.45
50,175.8,0.0500,-67.99,-0.74
51,177.8,0.0500,-68.44,7.11
52,179.9,0.0500,-67.06,-3.51
53,182.0,0.0500,-66.98,-6.10
54,184.1,0.0500,-68.66,4.12
55,186.2,0.0500,-66.47,-0.36
56,188.4,0.0500,-69.44,-8.82
57,190.5,0.0500,-68.08,-7.20
58,192.8,0.0500,-66.96,-2.18
59,195.0,0.0500,-68.06,-4.99
60,197.2,0.0500,-68.06,-12.42
61,199.5,0.0500,-68.26,-5.30
62,201.8,0.0500,-68.65,-3.68
63,204.2,0.0500,-68.13,2.59
64,206.5,0.0500,-68.21,-5.17
65,208.9,0.0500,-68.01,-1.98
66,211.3,0.0500,-68.08,6.29
67,213.8,0.0500,-67.96,5.17
68,216.3,0.0500,-68.38,4.78
69,218.8,0.0500,-68.76,13.29
70,221.3,0.0500,-69.41,-0.04
71,223.9,0.0500,-66.58,7.69
72,226.5,0.0500,-67.08,3.60
73,229.1,0.0500,-67.58,3.16
74,231.7,0.0500,-68.37,-9.63
75,234.4,0.0500,-68.42,-0.14
76,237.1,0.0500,-68.39,-0.42
77,239.9,0.0500,-67.75,-0.38
78,242.7,0.0500,-68.42,2.65
79,245.5,0.0500,-67.88,1.37
80,248.3,0.0500,-67.53,6.85
81,251.2,0.0500,-66.52,1.88
82,254.1,0.0500,-65.61,5.53
83,257.0,0.0500,-67.94,1.88
84,260.0,0.0500,-67.92,6.27
85,263.0,0.0500,-68.40,4.84
86,266.1,0.0500,-67.94,5.97
87,269.2,0.0500,-67.74,4.38
88,272.3,0.0500,-66.98,5.02
89,275.4,0.0500,-67.25,-3.09
90,278.6,0.0500,-67.66,11.68
91,281.8,0.0500,-66.78,3.67
92,285.1,0.0500,-68.72,6.54
93,288.4,0.0500,-68.35,9.83
94,291.7,0.0500,-67.70,4.96
95,295.1,0.0500,-67.77,6.24
96,298.5,0.0500,-67.78,4.89
97,302.0,0.0500,-68.16,0.32
98,305.5,0.0500,-69.55,-5.74
99,309.0,0.0500,-68.64,-1.12
100,312.6,0.0500,-68.10,18.60
101,316.2,0.0500,-68.18,2.71
102,319.9,0.0500,-67.28,2.30
103,323.6,0.0500,-67.59,5.10
104,327.3,0.0500,-67.98,8.28
105,331.1,0.0500,-67.89,2.44
106,335.0,0.0500,-68.30,0.79
107,338.8,0.0500,-67.94,-6.27
108,342.8,0.0500,-66.26,3.96
109,346.7,0.0500,-67.19,5.97
110,350.8,0.0500,-68.02,-1.33
111,354.8,0.0500,-67.92,12.47
112,358.9,0.0500,-67.20,1.24
113,363.1,0.0500,-67.11,9.99
114,367.3,0.0500,-68.24,5.40
115,371.5,0.0500,-68.11,-1.55
116,375.8,0.0500,-67.71,5.65
117,380.2,0.0500,-67.98,2.46
118,384.6,0.0500,-67.31,-2.64
119,389.0,0.0500,-67.71,14.02
120,393.6,0.0500,-67.68,-2.60
121,398.1,0.0500,-68.86,11.43
122,402.7,0.0500,-68.00,15.28
123,407.4,0.0500,-66.49,5.58
124,412.1,0.0500,-68.47,9.59
125,416.9,0.0500,-67.06,6.32
126,421.7,0.0500,-67.95,-4.12
127,426.6,0.0500,-67.21,14.96
128,431.5,0.0500,-68.18,5.75
129,436.5,0.0500,-65.92,2.62
130,441.6,0.0500,-66.64,6.93
131,446.7,0.0500,-68.04,11.68
132,451.9,0.0500,-67.71,-1.33
133,457.1,0.0500,-68.28,8.37
134,462.4,0.0500,-67.22,2.88
135,467.7,0.0500,-68.03,0.86
136,473.2,0.0500,-67.55,5.55
137,478.6,0.0500,-67.35,11.57
138,484.2,0.0500,-67.16,12.76
139,489.8,0.0500,-67.39,3.03
140,495.5,0.0500,-67.29,3.10
141,501.2,0.0500,-67.09,14.48
142,507.0,0.0500,-67.16,-1.43
143,512.9,0.0500,-67.44,-4.49
144,518.8,0.0500,-66.79,5.06
145,524.8,0.0500,-68.43,2.15
146,530.9,0.0500,-66.50,8.67
147,537.0,0.0500,-66.87,3.96
148,543.3,0.0500,-67.34,1.22
149,549.5,0.0500,-67.04,5.67
150,555.9,0.0500,-67.52,12.48
151,562.3,0.0500,-66.83,-5.07
152,568.9,0.0500,-67.19,11.75
153,575.4,0.0500,-67.35,1.92
154,582.1,0.0500,-68.06,11.43
155,588.8,0.0500,-67.95,-0.43
156,595.7,0.0500,-67.46,-0.79
157,602.6,0.0500,-66.64,2.59
158,609.5,0.0500,-66.20,3.06
159,616.6,0.0500,-66.69,14.46
160,623.7,0.0500,-66.92,10.08
161,631.0,0.0500,-67.86,11.38
162,638.3,0.0500,-67.17,6.48
163,645.7,0.0500,-66.14,5.96
164,653.1,0.0500,-67.69,19.13
165,660.7,0.0500,-67.57,10.80
166,668.3,0.0500,-67.40,10.62
167,676.1,0.0500,-67.16,10.50
168,683.9,0.0500,-66.23,13.32
169,691.8,0.0500,-67.26,8.77
170,699.8,0.0500,-65.32,10.37
171,707.9,0.0500,-68.01,11.04
172,716.1,0.0500,-68.84,13.09
173,724.4,0.0500,-66.56,4.81
174,732.8,0.0500,-68.34,9.28
175,741.3,0.0500,-65.37,19.30
176,749.9,0.0500,-67.99,5.27
177,758.6,0.0500,-67.53,2.36
178,767.4,0.0500,-65.20,10.77
179,776.2,0.0500,-66.25,6.16
180,785.2,0.0500,-68.52,-6.01
181,794.3,0.0500,-66.00,9.96
182,803.5,0.0500,-66.06,13.66
183,812.8,0.0500,-65.40,12.43
184,822.2,0.0500,-66.15,0.17
185,831.8,0.0500,-67.06,1.43
186,841.4,0.0500,-67.11,8.51
187,851.1,0.0500,-66.44,8.76
188,861.0,0.0500,-66.83,8.46
189,871.0,0.0500,-66.67,13.39
190,881.0,0.0500,-66.09,16.32
191,891.3,0.0500,-67.64,10.49
192,901.6,0.0500,-66.70,24.60
193,912.0,0.0500,-66.50,8.09
194,922.6,0.0500,-66.45,17.14
195,933.3,0.0500,-67.04,21.66
196,944.1,0.0500,-66.67,13.48
197,955.0,0.0500,-66.90,11.45
198,966.1,0.0500,-66.94,9.45
199,977.2,0.0500,-67.72,10.99
200,988.6,0.0500,-66.37,2.27
201,1000.0,0.0500,-65.91,1.80
202,1011.6,0.0500,-66.35,7.68
203,1023.3,0.0500,-65.30,22.14
204,1035.1,0.0500,-66.16,0.56
205,1047.1,0.0500,-67.58,4.70
206,1059.3,0.0500,-65.47,16.19
207,1071.5,0.0500,-64.71,17.89
208,1083.9,0.0500,-67.14,10.85
209,1096.5,0.0500,-66.89,28.49
210,1109.2,0.0500,-66.27,13.43
211,1122.0,0.0500,-66.95,15.31
212,1135.0,0.0500,-66.32,11.80
213,1148.2,0.0500,-66.88,9.48
214,1161.4,0.0500,-65.84,16.36
215,1174.9,0.0500,-66.09,19.16
216,1188.5,0.0500,-66.74,12.40
217,1202.3,0.0500,-66.26,11.34
218,1216.2,0.0500,-66.48,7.83
219,1230.3,0.0500,-66.34,21.98
220,1244.5,0.0500,-66.79,14.32
221,1258.9,0.0500,-66.62,16.05
222,1273.5,0.0500,-66.06,13.94
223,1288.2,0.0500,-66.15,15.45
224,1303.2,0.0500,-67.09,17.80
225,1318.3,0.0500,-66.30,20.24
226,1333.5,0.0500,-66.98,26.87
227,1349.0,0.0500,-65.56,21.38
228,1364.6,0.0500,-67.71,6.04
229,1380.4,0.0500,-64.34,22.30
230,1396.4,0.0500,-68.07,24.36
231,1412.5,0.0500,-65.87,23.48
232,1428.9,0.0500,-66.15,16.89
233,1445.4,0.0500,-66.29,33.42
234,1462.2,0.0500,-69.92,23.46
235,1479.1,0.0500,-64.56,23.23
236,1496.2,0.0500,-67.24,15.55
237,1513.6,0.0500,-64.25,7.41
238,1531.1,0.0500,-68.72,10.09
239,1548.8,0.0500,-67.42,22.57
240,1566.8,0.0500,-66.45,-0.33
241,1584.9,0.0500,-64.94,58.59
242,1603.2,0.0500,-65.16,36.64
243,1621.8,0.0500,-64.26,0.41
244,1640.6,0.0500,-68.12,2.46
245,1659.6,0.0500,-66.45,17.49
246,1678.8,0.0500,-63.44,6.76
247,1698.2,0.0500,-74.93,-16.48
248,1717.9,0.0500,-66.05,16.07
249,1737.8,0.0500,-64.29,12.87
250,1757.9,0.0500,-66.19,15.96
251,1778.3,0.0500,-68.13,30.11
252,1798.9,0.0500,-67.94,5.65
253,1819.7,0.0500,-66.94,26.99
254,1840.8,0.0500,-65.23,16.12
255,1862.1,0.0500,-67.99,27.88
256,1883.6,0.0500,-63.58,-1.08
257,1905.5,0.0500,-68.16,6.31
258,1927.5,0.0500,-65.77,12.30
259,1949.8,0.0500,-66.49,19.86
260,1972.4,0.0500,-66.68,28.07
261,1995.3,0.0500,-69.57,-7.27
262,2018.4,0.0500,-66.85,14.31
263,2041.7,0.0500,-67.58,25.64
264,2065.4,0.0500,-65.91,38.01
265,2089.3,0.0500,-65.61,17.05
266,2113.5,0.0500,-67.21,12.01
267,2138.0,0.0500,-65.77,20.73
268,2162.7,0.0500,-65.87,31.94
269,2187.8,0.0500,-65.73,30.01
270,2213.1,0.0500,-65.61,28.66
271,2238.7,0.0500,-64.95,35.73
272,2264.6,0.0500,-65.56,26.68
273,2290.9,0.0500,-66.91,27.78
274,2317.4,0.0500,-65.59,22.47
275,2344.2,0.0500,-66.31,36.12
276,2371.4,0.0500,-65.33,23.28
277,2398.8,0.0500,-65.20,40.84
278,2426.6,0.0500,-66.70,15.69
279,2454.7,0.0500,-64.88,24.53
280,2483.1,0.0500,-63.07,40.46
281,2511.9,0.0500,-62.76,31.77
282,2541.0,0.0500,-64.75,28.87
283,2570.4,0.0500,-69.87,28.53
284,2600.2,0.0500,-66.38,28.75
285,2630.3,0.0500,-65.38,24.23
286,2660.7,0.0500,-64.68,25.21
287,2691.5,0.0500,-62.95,20.61
288,2722.7,0.0500,-64.19,29.05
289,2754.2,0.0500,-66.07,35.12
290,2786.1,0.0500,-67.03,40.29
291,2818.4,0.0500,-64.00,33.28
292,2851.0,0.0500,-64.81,27.35
293,2884.0,0.0500,-65.57,30.75
294,2917.4,0.0500,-65.81,37.19
295,2951.2,0.0500,-64.75,20.59
296,2985.4,0.0500,-65.30,44.51
297,3020.0,0.0500,-64.07,26.74
298,3054.9,0.0500,-64.15,38.45
299,3090.3,0.0500,-63.43,33.87
300,3126.1,0.0500,-65.20,31.70
301,3162.3,0.0500,-64.76,23.62
302,3198.9,0.0500,-64.44,39.49
303,3235.9,0.0500,-64.62,39.43
304,3273.4,0.0500,-66.28,34.01
305,3311.3,0.0500,-63.32,30.12
306,3349.7,0.0500,-64.56,30.17
307,3388.4,0.0500,-63.78,26.45
308,3427.7,0.0500,-66.40,42.25
309,3467.4,0.0500,-63.81,43.35
310,3507.5,0.0500,-66.01,43.42
311,3548.1,0.0500,-64.13,35.34
312,3589.2,0.0500,-62.59,24.63
313,3630.8,0.0500,-64.24,40.22
314,3672.8,0.0500,-65.04,42.13
315,3715.4,0.0500,-67.40,29.46
316,3758.4,0.0500,-63.34,41.18
317,3801.9,0.0500,-60.98,38.58
318,3845.9,0.0500,-64.81,37.30
319,3890.5,0.0500,-63.97,34.24
320,3935.5,0.0500,-64.13,44.42
321,3981.1,0.0500,-64.52,12.34
322,4027.2,0.0500,-63.82,50.13
323,4073.8,0.0500,-63.06,31.34
324,4121.0,0.0500,-63.59,40.24
325,4168.7,0.0500,-62.69,44.54
326,4217.0,0.0500,-63.75,38.23
327,4265.8,0.0500,-63.82,49.69
328,4315.2,0.0500,-63.09,38.46
329,4365.2,0.0500,-63.61,37.18
330,4415.7,0.0500,-63.79,48.23
331,4466.8,0.0500,-62.32,43.82
332,4518.6,0.0500,-65.39,48.16
333,4570.9,0.0500,-63.18,44.76
334,4623.8,0.0500,-64.31,44.40
335,4677.4,0.0500,-65.65,45.08
336,4731.5,0.0500,-64.43,47.13
337,4786.3,0.0500,-62.61,35.54
338,4841.7,0.0500,-65.50,33.47
339,4897.8,0.0500,-64.11,50.85
340,4954.5,0.0500,-61.47,45.50
341,5011.9,0.0500,-63.30,46.73
342,5069.9,0.0500,-62.53,43.01
343,5128.6,0.0500,-62.27,37.89
344,5188.0,0.0500,-63.39,40.11
345,5248.1,0.0500,-63.23,42.08
346,5308.8,0.0500,-62.84,43.59
347,5370.3,0.0500,-64.15,43.92
348,5432.5,0.0500,-62.85,61.28
349,5495.4,0.0500,-61.67,63.82
350,5559.0,0.0500,-63.48,49.91
351,5623.4,0.0500,-62.98,65.09
352,5688.5,0.0500,-61.93,41.74
353,5754.4,0.0500,-62.63,48.29
354,5821.0,0.0500,-61.44,46.69
355,5888.4,0.0500,-62.36,47.78
356,5956.6,0.0500,-61.85,47.39
357,6025.6,0.0500,-63.58,43.87
358,6095.4,0.0500,-62.28,47.97
359,6166.0,0.0500,-63.45,51.54
360,6237.3,0.0500,-62.24,47.58
361,6309.6,0.0500,-62.21,56.03
362,6382.6,0.0500,-61.53,46.96
363,6456.5,0.0500,-62.06,48.35
364,6531.3,0.0500,-61.56,48.46
365,6606.9,0.0500,-62.06,56.68
366,6683.4,0.0500,-61.96,51.89
367,6760.8,0.0500,-60.96,45.69
368,6839.1,0.0500,-62.52,42.50
369,6918.3,0.0500,-61.23,58.14
370,6998.4,0.0500,-60.72,53.83
371,7079.5,0.0500,-61.93,46.70
372,7161.4,0.0500,-61.77,47.72
373,7244.4,0.0500,-60.79,57.79
374,7328.2,0.0500,-60.93,55.12
375,7413.1,0.0500,-60.08,43.42
376,7498.9,0.0500,-60.04,53.33
377,7585.8,0.0500,-60.04,60.99
378,7673.6,0.0500,-61.06,55.55
379,7762.5,0.0500,-61.00,50.70
380,7852.4,0.0500,-60.45,52.28
381,7943.3,0.0500,-59.91,54.93
382,8035.3,0.0500,-61.52,72.87
383,8128.3,0.0500,-59.86,51.52
384,8222.4,0.0500,-60.85,53.59
385,8317.6,0.0500,-59.86,49.43
386,8414.0,0.0500,-59.97,60.20
387,8511.4,0.0500,-60.44,52.33
388,8609.9,0.0500,-60.36,57.07
389,8709.6,0.0500,-59.94,58.70
390,8810.5,0.0500,-59.56,58.23
391,8912.5,0.0500,-59.31,54.83
392,9015.7,0.0500,-59.10,51.92
393,9120.1,0.0500,-59.87,55.78
394,9225.7,0.0500,-59.23,58.28
395,9332.5,0.0500,-58.59,55.17
396,9440.6,0.0500,-59.16,56.41
397,9549.9,0.0500,-60.65,53.53
398,9660.5,0.0500,-59.55,58.51
399,9772.4,0.0500,-59.13,56.68
400,9885.5,0.0500,-59.81,55.35
401,10000.0,0.0500,-59.31,53.11
402,10115.8,0.0500,-59.39,55.91
403,10232.9,0.0500,-58.57,56.33
404,10351.4,0.0500,-59.65,56.42
405,10471.3,0.0500,-59.09,58.04
406,10592.5,0.0500,-58.86,59.02
407,10715.2,0.0500,-58.57,55.86
408,10839.3,0.0500,-58.75,52.89
409,10964.8,0.0500,-57.95,54.03
410,11091.7,0.0500,-58.27,61.98
411,11220.2,0.0500,-58.52,57.86
412,11350.1,0.0500,-58.03,59.35
413,11481.5,0.0500,-58.46,59.29
414,11614.5,0.0500,-57.55,59.07
415,11749.0,0.0500,-57.86,60.23
416,11885.0,0.0500,-58.24,59.83
417,12022.6,0.0500,-57.94,62.04
418,12161.9,0.0500,-56.63,56.98
419,12302.7,0.0500,-58.24,54.04
420,12445.1,0.0500,-57.45,61.64
421,12589.3,0.0500,-58.23,57.26
422,12735.0,0.0500,-57.25,60.94
423,12882.5,0.0500,-57.60,61.03
424,13031.7,0.0500,-57.45,61.40
425,13182.6,0.0500,-57.55,60.59
426,13335.2,0.0500,-57.18,59.76
427,13489.6,0.0500,-57.62,67.11
428,13645.8,0.0500,-57.07,61.60
429,13803.8,0.0500,-56.44,74.69
430,13963.7,0.0500,-56.59,68.67
431,14125.4,0.0500,-56.87,60.32
432,14288.9,0.0500,-55.97,60.58
433,14454.4,0.0500,-56.57,60.77
434,14621.8,0.0500,-56.09,55.99
435,14791.1,0.0500,-56.56,59.97
436,14962.4,0.0500,-56.41,62.50
437,15135.6,0.0500,-56.07,61.91
438,15310.9,0.0500,-56.17,62.44
439,15488.2,0.0500,-56.39,65.59
440,15667.5,0.0500,-56.04,61.16
441,15848.9,0.0500,-55.88,62.79
442,16032.5,0.0500,-55.64,62.02
443,16218.1,0.0500,-56.03,59.81
444,16405.9,0.0500,-55.55,58.03
445,16595.9,0.0500,-55.99,59.74
446,16788.0,0.0500,-55.85,62.43
447,16982.4,0.0500,-55.52,64.04
448,17179.1,0.0500,-55.40,64.86
449,17378.0,0.0500,-55.60,60.95
450,17579.2,0.0500,-55.15,61.83
451,17782.8,0.0500,-55.20,64.16
452,17988.7,0.0500,-55.00,67.80
453,18197.0,0.0500,-55.04,64.15
454,18407.7,0.0500,-55.26,62.03
455,18620.9,0.0500,-55.24,62.80
456,18836.5,0.0500,-54.64,62.46
457,19054.6,0.0500,-55.23,65.05
458,19275.2,0.0500,-55.38,60.92
459,19498.4,0.0500,-54.56,63.40
460,19724.2,0.0500,-54.69,58.91
461,19952.6,0.0500,-54.84,63.74
462,20183.7,0.0500,-54.78,59.94
463,20417.4,0.0500,-54.26,63.52
464,20653.8,0.0500,-54.73,61.60
465,20893.0,0.0500,-54.69,64.92
466,21134.9,0.0500,-54.22,63.33
467,21379.6,0.0500,-53.96,62.20
468,21627.2,0.0500,-53.83,62.69
469,21877.6,0.0500,-53.75,65.54
470,22130.9,0.0500,-53.80,62.51
471,22387.2,0.0500,-53.76,65.35
472,22646.4,0.0500,-53.81,62.88
473,22908.7,0.0500,-53.56,61.60
474,23173.9,0.0500,-53.73,61.62
475,23442.3,0.0500,-53.48,63.02
476,23713.7,0.0500,-53.35,63.15
477,23988.3,0.0500,-53.39,64.39
478,24266.1,0.0500,-53.18,62.77
479,24547.1,0.0500,-53.39,63.31
480,24831.3,0.0500,-53.13,62.71
481,25118.9,0.0500,-53.05,63.32
482,25409.7,0.0500,-52.95,64.66
483,25704.0,0.0500,-52.93,62.85
484,26001.6,0.0500,-53.02,61.22
485,26302.7,0.0500,-52.73,64.84
486,26607.3,0.0500,-52.83,62.69
487,26915.3,0.0500,-52.53,61.64
488,27227.0,0.0500,-52.27,62.85
489,27542.3,0.0500,-52.43,63.86
490,27861.2,0.0500,-52.28,63.33
491,28183.8,0.0500,-52.32,66.87
492,28510.2,0.0500,-52.16,64.32
493,28840.3,0.0500,-52.02,64.21
494,29174.3,0.0500,-51.86,63.73
495,29512.1,0.0500,-52.00,63.78
496,29853.8,0.0500,-52.01,63.27
497,30199.5,0.0500,-51.75,65.15
498,30549.2,0.0500,-51.73,64.81
499,30903.0,0.0500,-51.76,64.73
500,31260.8,0.0500,-51.90,62.86
501,31622.8,0.0500,-52.09,65.07
502,31989.0,0.0500,-51.23,65.82
503,32359.4,0.0500,-51.76,64.61
504,32734.1,0.0500,-51.28,64.21
505,33113.1,0.0500,-51.56,63.94
506,33496.5,0.0500,-51.31,63.60
507,33884.4,0.0500,-51.25,63.14
508,34276.8,0.0500,-51.12,63.22
509,34673.7,0.0500,-50.84,63.92
510,35075.2,0.0500,-51.30,66.33
511,35481.3,0.0500,-50.68,67.21
512,35892.2,0.0500,-50.69,67.11
513,36307.8,0.0500,-50.95,65.35
514,36728.2,0.0500,-50.70,64.59
515,37153.5,0.0500,-50.48,64.44
516,37583.7,0.0500,-50.38,66.38
517,38018.9,0.0500,-50.51,67.45
518,38459.2,0.0500,-50.34,66.43
519,38904.5,0.0500,-50.09,67.03
520,39355.0,0.0500,-50.42,66.31
521,39810.7,0.0500,-50.09,65.57
522,40271.7,0.0500,-50.25,66.60
523,40738.0,0.0500,-49.93,66.56
524,41209.8,0.0500,-49.75,66.56
525,41686.9,0.0500,-49.92,67.12
526,42169.7,0.0500,-49.75,65.61
527,42658.0,0.0500,-49.69,65.09
528,43151.9,0.0500,-49.53,64.99
529,43651.6,0.0500,-49.77,66.37
530,44157.0,0.0500,-49.54,66.75
531,44668.4,0.0500,-49.14,66.05
532,45185.6,0.0500,-49.10,65.21
533,45708.8,0.0500,-49.09,65.74
534,46238.1,0.0500,-49.18,66.00
535,46773.5,0.0500,-49.11,66.15
536,47315.1,0.0500,-49.02,65.22
537,47863.0,0.0500,-49.11,65.89
538,48417.2,0.0500,-49.17,69.04
539,48977.9,0.0500,-48.20,66.59
540,49545.0,0.0500,-48.89,68.18
541,50118.7,0.0500,-48.80,68.27
542,50699.1,0.0500,-48.32,67.80
543,51286.1,0.0500,-48.27,68.47
544,51880.0,0.0500,-48.03,67.38
545,52480.7,0.0500,-48.26,66.98
546,53088.4,0.0500,-47.90,67.17
547,53703.2,0.0500,-48.01,65.91
548,54325.0,0.0500,-47.90,65.96
549,54954.1,0.0500,-47.71,63.99
550,55590.4,0.0500,-47.63,66.58
551,56234.1,0.0500,-47.78,68.25
552,56885.3,0.0500,-47.61,66.05
553,57544.0,0.0500,-47.39,66.94
554,58210.3,0.0500,-47.47,69.36
555,58884.4,0.0500,-47.64,67.06
556,59566.2,0.0500,-47.36,66.14
557,60256.0,0.0500,-47.80,69.91
558,60953.7,0.0500,-47.49,66.34
559,61659.5,0.0500,-46.96,68.05
560,62373.5,0.0500,-46.85,67.27
561,63095.7,0.0500,-47.07,66.60
562,63826.3,0.0500,-47.16,66.91
563,64565.4,0.0500,-46.91,63.84
564,65313.1,0.0500,-47.03,69.30
565,66069.3,0.0500,-46.59,70.33
566,66834.4,0.0500,-46.68,66.51
567,67608.3,0.0500,-46.51,66.72
568,68391.2,0.0500,-46.65,65.38
569,69183.1,0.0500,-46.50,68.60
570,69984.2,0.0500,-46.28,67.14
571,70794.6,0.0500,-46.15,65.22
572,71614.3,0.0500,-46.35,67.49
573,72443.6,0.0500,-46.28,67.02
574,73282.5,0.0500,-46.44,65.71
575,74131.0,0.0500,-45.87,71.30
576,74989.4,0.0500,-45.56,68.66
577,75857.8,0.0500,-45.72,68.07
578,76736.1,0.0500,-45.95,64.59
579,77624.7,0.0500,-45.29,69.51
580,78523.6,0.0500,-45.58,68.40
581,79432.8,0.0500,-45.71,69.46
582,80352.6,0.0500,-45.43,69.36
583,81283.1,0.0500,-45.43,67.89
584,82224.3,0.0500,-45.11,67.29
585,83176.4,0.0500,-45.17,67.99
586,84139.5,0.0500,-45.51,67.60
587,85113.8,0.0500,-45.03,69.46
588,86099.4,0.0500,-44.99,72.24
589,87096.4,0.0500,-45.09,67.97
590,88104.9,0.0500,-44.98,68.54
591,89125.1,0.0500,-44.84,68.61
592,90157.1,0.0500,-45.01,67.29
593,91201.1,0.0500,-44.40,68.36
594,92257.1,0.0500,-44.33,69.13
595,93325.4,0.0500,-44.49,68.46
596,94406.1,0.0500,-44.25,67.96
597,95499.3,0.0500,-44.27,68.99
598,96605.1,0.0500,-44.13,68.44
599,97723.7,0.0500,-44.22,69.46
600,98855.3,0.0500,-43.94,69.25
601,100000.0,0.0500,-43.79,69.95
602,101157.9,0.0500,-43.95,68.86
603,102329.3,0.0500,-43.71,69.12
604,103514.2,0.0500,-43.63,69.04
605,104712.9,0.0500,-43.72,69.43
606,105925.4,0.0500,-43.58,68.66
607,107151.9,0.0500,-43.62,70.01
608,108392.7,0.0500,-43.16,68.98
609,109647.8,0.0500,-43.16,68.88
610,110917.5,0.0500,-43.21,69.38
611,112201.8,0.0500,-42.76,69.46
612,113501.1,0.0500,-43.38,71.29
613,114815.4,0.0500,-42.91,70.49
614,116144.9,0.0500,-42.72,70.84
615,117489.8,0.0500,-42.71,72.10
616,118850.2,0.0500,-42.63,68.32
617,120226.4,0.0500,-42.27,71.42
618,121618.6,0.0500,-42.46,70.97
619,123026.9,0.0500,-42.37,69.38
620,124451.5,0.0500,-42.18,69.45
621,125892.5,0.0500,-42.03,69.06
622,127350.3,0.0500,-41.92,70.09
623,128825.0,0.0500,-42.11,69.95
624,130316.7,0.0500,-41.96,69.98
625,131825.7,0.0500,-42.09,66.34
626,133352.1,0.0500,-41.92,69.66
627,134896.3,0.0500,-41.74,69.60
628,136458.3,0.0500,-41.31,69.31
629,138038.4,0.0500,-41.33,68.73
630,139636.8,0.0500,-41.24,69.51
631,141253.8,0.0500,-41.88,70.74
632,142889.4,0.0500,-41.02,72.34
633,144544.0,0.0500,-41.36,69.74
634,146217.7,0.0500,-41.14,71.25
635,147910.8,0.0500,-40.97,70.60
636,149623.6,0.0500,-40.71,71.00
637,151356.1,0.0500,-40.99,68.92
638,153108.7,0.0500,-40.64,67.95
639,154881.7,0.0500,-40.32,71.69
640,156675.1,0.0500,-40.56,69.67
641,158489.3,0.0500,-40.04,67.36
642,160324.5,0.0500,-40.33,70.97
643,162181.0,0.0500,-40.31,69.99
644,164059.0,0.0500,-40.20,70.18
645,165958.7,0.0500,-39.62,74.13
646,167880.4,0.0500,-38.77,72.83
647,169824.4,0.0500,-39.93,69.87
