#, Frequency (Hz), Amplitude (Vpp), Gain (dB), Phase (°)
1,100.0,0.0500,-49.90,52.57
2,101.2,0.0500,-49.88,51.15
3,102.3,0.0500,-49.71,53.66
4,103.5,0.0500,-49.74,53.02
5,104.7,0.0500,-50.06,51.09
6,105.9,0.0500,-49.73,51.72
7,107.2,0.0500,-49.82,55.15
8,108.4,0.0500,-49.61,52.63
9,109.6,0.0500,-49.38,52.84
10,110.9,0.0500,-49.45,54.25
11,112.2,0.0500,-49.57,52.31
12,113.5,0.0500,-49.39,53.41
13,114.8,0.0500,-49.52,52.63
14,116.1,0.0500,-49.41,54.25
15,117.5,0.0500,-49.42,54.12
16,118.9,0.0500,-49.22,54.07
17,120.2,0.0500,-49.34,52.75
18,121.6,0.0500,-49.15,52.65
19,123.0,0.0500,-49.12,54.25
20,124.5,0.0500,-49.07,53.19
21,125.9,0.0500,-49.00,52.25
22,127.4,0.0500,-48.96,53.29
23,128.8,0.0500,-49.08,52.83
24,130.3,0.0500,-48.72,52.55
25,131.8,0.0500,-48.71,53.54
26,133.4,0.0500,-48.64,52.38
27,134.9,0.0500,-48.63,52.55
28,136.5,0.0500,-48.70,53.86
29,138.0,0.0500,-48.62,51.85
30,139.6,0.0500,-48.34,52.17
31,141.3,0.0500,-48.50,52.58
32,142.9,0.0500,-48.47,53.43
33,144.5,0.0500,-48.23,52.77
34,146.2,0.0500,-48.20,52.94
35,147.9,0.0500,-48.24,53.39
36,149.6,0.0500,-48.34,52.31
37,151.4,0.0500,-48.05,52.83
38,153.1,0.0500,-48.15,53.58
39,154.9,0.0500,-48.08,53.53
40,156.7,0.0500,-47.86,53.26
41,158.5,0.0500,-47.91,53.22
42,160.3,0.0500,-47.92,53.77
43,162.2,0.0500,-47.85,52.50
44,164.1,0.0500,-47.87,53.23
45,166.0,0.0500,-47.81,52.30
46,167.9,0.0500,-47.74,53.70
47,169.8,0.0500,-47.59,53.15
48,171.8,0.0500,-47.42,54.70
49,173.8,0.0500,-47.53,54.32
50,175.8,0.0500,-47.44,52.91
51,177.8,0.0500,-47.37,54.17
52,179.9,0.0500,-47.35,54.71
53,182.0,0.0500,-47.27,54.34
54,184.1,0.0500,-47.18,54.51
55,186.2,0.0500,-47.07,54.34
56,188.4,0.0500,-47.04,53.79
57,190.5,0.0500,-47.13,53.89
58,192.8,0.0500,-46.90,54.27
59,195.0,0.0500,-46.78,54.18
60,197.2,0.0500,-47.00,54.37
61,199.5,0.0500,-46.87,54.07
62,201.8,0.0500,-46.67,54.60
63,204.2,0.0500,-46.65,54.37
64,206.5,0.0500,-46.68,54.59
65,208.9,0.0500,-46.76,54.42
66,211.3,0.0500,-46.59,54.78
67,213.8,0.0500,-46.49,55.05
68,216.3,0.0500,-46.34,54.61
69,218.8,0.0500,-46.31,55.44
70,221.3,0.0500,-46.47,55.34
71,223.9,0.0500,-46.31,54.82
72,226.5,0.0500,-46.26,55.05
73,229.1,0.0500,-46.25,54.82
74,231.7,0.0500,-46.15,55.71
75,234.4,0.0500,-45.97,55.00
76,237.1,0.0500,-45.93,54.93
77,239.9,0.0500,-45.92,54.70
78,242.7,0.0500,-45.90,54.47
79,245.5,0.0500,-45.67,55.72
80,248.3,0.0500,-45.67,55.88
81,251.2,0.0500,-45.57,55.65
82,254.1,0.0500,-45.56,56.85
83,257.0,0.0500,-45.43,55.52
84,260.0,0.0500,-45.51,56.54
85,263.0,0.0500,-45.49,55.51
86,266.1,0.0500,-45.35,56.43
87,269.2,0.0500,-45.37,56.11
88,272.3,0.0500,-45.29,55.91
89,275.4,0.0500,-45.15,56.49
90,278.6,0.0500,-45.11,56.36
91,281.8,0.0500,-44.95,56.54
92,285.1,0.0500,-45.13,56.81
93,288.4,0.0500,-45.04,56.77
94,291.7,0.0500,-44.90,57.01
95,295.1,0.0500,-44.91,57.29
96,298.5,0.0500,-44.64,56.69
97,302.0,0.0500,-44.61,56.93
98,305.5,0.0500,-44.58,57.30
99,309.0,0.0500,-44.56,56.43
100,312.6,0.0500,-44.45,57.07
101,316.2,0.0500,-44.42,57.60
102,319.9,0.0500,-44.32,57.25
103,323.6,0.0500,-44.24,58.22
104,327.3,0.0500,-44.21,57.74
105,331.1,0.0500,-44.15,57.55
106,335.0,0.0500,-44.04,56.94
107,338.8,0.0500,-43.96,58.45
108,342.8,0.0500,-43.95,57.77
109,346.7,0.0500,-43.88,57.71
110,350.8,0.0500,-43.81,57.17
111,354.8,0.0500,-43.76,58.62
112,358.9,0.0500,-43.55,58.02
113,363.1,0.0500,-43.56,57.46
114,367.3,0.0500,-43.59,58.57
115,371.5,0.0500,-43.46,58.80
116,375.8,0.0500,-43.38,57.81
117,380.2,0.0500,-43.36,58.62
118,384.6,0.0500,-43.34,58.93
119,389.0,0.0500,-43.20,58.67
120,393.6,0.0500,-43.19,58.67
121,398.1,0.0500,-43.08,58.47
122,402.7,0.0500,-43.00,58.60
123,407.4,0.0500,-42.86,58.61
124,412.1,0.0500,-42.80,59.01
125,416.9,0.0500,-42.86,58.66
126,421.7,0.0500,-42.74,58.84
127,426.6,0.0500,-42.79,58.96
128,431.5,0.0500,-42.54,58.97
129,436.5,0.0500,-42.55,59.37
130,441.6,0.0500,-42.47,59.16
131,446.7,0.0500,-42.39,59.03
132,451.9,0.0500,-42.32,59.43
133,457.1,0.0500,-42.17,59.76
134,462.4,0.0500,-42.21,59.39
135,467.7,0.0500,-42.14,59.63
136,473.2,0.0500,-42.08,59.35
137,478.6,0.0500,-42.00,59.81
138,484.2,0.0500,-42.02,59.28
139,489.8,0.0500,-41.85,60.02
140,495.5,0.0500,-41.81,59.88
141,501.2,0.0500,-41.74,59.15
142,507.0,0.0500,-41.61,59.60
143,512.9,0.0500,-41.73,60.43
144,518.8,0.0500,-41.52,60.36
145,524.8,0.0500,-41.39,60.23
146,530.9,0.0500,-41.33,60.26
147,537.0,0.0500,-41.21,60.84
148,543.3,0.0500,-41.33,60.55
149,549.5,0.0500,-41.14,60.08
150,555.9,0.0500,-41.06,60.04
151,562.3,0.0500,-41.04,60.48
152,568.9,0.0500,-40.91,60.89
153,575.4,0.0500,-40.83,60.93
154,582.1,0.0500,-40.74,60.92
155,588.8,0.0500,-40.76,60.76
156,595.7,0.0500,-40.64,60.27
157,602.6,0.0500,-40.57,60.41
158,609.5,0.0500,-40.55,60.86
159,616.6,0.0500,-40.47,60.99
160,623.7,0.0500,-40.43,60.39
161,631.0,0.0500,-40.31,60.88
162,638.3,0.0500,-40.26,60.81
163,645.7,0.0500,-40.14,60.69
164,653.1,0.0500,-40.09,60.77
165,660.7,0.0500,-39.94,61.14
166,668.3,0.0500,-39.97,61.85
167,676.1,0.0500,-39.74,61.29
168,683.9,0.0500,-39.81,61.17
169,691.8,0.0500,-39.74,60.91
170,699.8,0.0500,-39.71,60.97
171,707.9,0.0500,-39.54,62.02
172,716.1,0.0500,-39.50,61.42
173,724.4,0.0500,-39.43,61.58
174,732.8,0.0500,-39.38,61.96
175,741.3,0.0500,-39.31,61.34
176,749.9,0.0500,-39.24,60.97
177,758.6,0.0500,-39.00,61.25
178,767.4,0.0500,-39.04,61.44
179,776.2,0.0500,-39.11,62.79
180,785.2,0.0500,-38.88,62.00
181,794.3,0.0500,-38.94,61.87
182,803.5,0.0500,-38.83,61.67
183,812.8,0.0500,-38.67,61.13
184,822.2,0.0500,-38.62,61.87
185,831.8,0.0500,-38.56,61.90
186,841.4,0.0500,-38.46,62.00
187,851.1,0.0500,-38.44,61.57
188,861.0,0.0500,-38.35,62.04
189,871.0,0.0500,-38.27,61.86
190,881.0,0.0500,-38.17,61.92
191,891.3,0.0500,-38.12,62.37
192,901.6,0.0500,-38.02,62.08
193,912.0,0.0500,-37.97,62.15
194,922.6,0.0500,-37.93,62.25
195,933.3,0.0500,-37.81,62.37
196,944.1,0.0500,-37.80,62.17
197,955.0,0.0500,-37.67,62.12
198,966.1,0.0500,-37.67,62.42
199,977.2,0.0500,-37.63,62.16
200,988.6,0.0500,-37.44,62.09
201,1000.0,0.0500,-37.37,62.45
202,1011.6,0.0500,-37.37,61.70
203,1023.3,0.0500,-37.26,62.53
204,1035.1,0.0500,-37.19,62.34
205,1047.1,0.0500,-37.16,62.41
206,1059.3,0.0500,-37.02,62.26
207,1071.5,0.0500,-36.88,62.16
208,1083.9,0.0500,-36.94,62.67
209,1096.5,0.0500,-36.83,62.10
210,1109.2,0.0500,-36.79,62.55
211,1122.0,0.0500,-36.69,62.46
212,1135.0,0.0500,-36.55,61.95
213,1148.2,0.0500,-36.47,62.51
214,1161.4,0.0500,-36.47,62.48
215,1174.9,0.0500,-36.46,62.46
216,1188.5,0.0500,-36.34,62.83
217,1202.3,0.0500,-36.21,63.02
218,1216.2,0.0500,-36.19,62.84
219,1230.3,0.0500,-36.10,62.92
220,1244.5,0.0500,-36.04,62.84
221,1258.9,0.0500,-36.00,62.58
222,1273.5,0.0500,-35.89,62.78
223,1288.2,0.0500,-35.80,62.47
224,1303.2,0.0500,-35.77,62.56
225,1318.3,0.0500,-35.68,62.83
226,1333.5,0.0500,-35.59,62.63
227,1349.0,0.0500,-35.53,62.62
228,1364.6,0.0500,-35.47,63.01
229,1380.4,0.0500,-35.35,62.93
230,1396.4,0.0500,-35.31,62.69
231,1412.5,0.0500,-35.21,63.20
232,1428.9,0.0500,-35.17,63.07
233,1445.4,0.0500,-35.07,62.81
234,1462.2,0.0500,-34.92,62.72
235,1479.1,0.0500,-34.93,62.63
236,1496.2,0.0500,-34.82,63.09
237,1513.6,0.0500,-34.88,63.05
238,1531.1,0.0500,-34.76,63.05
239,1548.8,0.0500,-34.67,62.86
240,1566.8,0.0500,-34.60,62.69
241,1584.9,0.0500,-34.60,62.90
242,1603.2,0.0500,-34.36,62.98
243,1621.8,0.0500,-34.36,63.07
244,1640.6,0.0500,-34.33,62.83
245,1659.6,0.0500,-34.27,63.48
246,1678.8,0.0500,-33.99,63.35
247,1698.2,0.0500,-34.14,62.45
248,1717.9,0.0500,-33.89,62.08
249,1737.8,0.0500,-34.10,61.94
250,1757.9,0.0500,-33.88,63.09
251,1778.3,0.0500,-33.74,62.75
252,1798.9,0.0500,-33.73,62.97
253,1819.7,0.0500,-33.70,62.30
254,1840.8,0.0500,-33.40,63.12
255,1862.1,0.0500,-33.53,62.81
256,1883.6,0.0500,-33.50,63.00
257,1905.5,0.0500,-33.29,63.00
258,1927.5,0.0500,-33.35,62.77
259,1949.8,0.0500,-33.22,62.75
260,1972.4,0.0500,-33.16,62.83
261,1995.3,0.0500,-33.06,63.28
262,2018.4,0.0500,-33.01,62.83
263,2041.7,0.0500,-32.89,63.22
264,2065.4,0.0500,-32.81,62.92
265,2089.3,0.0500,-32.79,63.05
266,2113.5,0.0500,-32.71,63.10
267,2138.0,0.0500,-32.64,62.90
268,2162.7,0.0500,-32.55,63.16
269,2187.8,0.0500,-32.47,63.08
270,2213.1,0.0500,-32.37,63.58
271,2238.7,0.0500,-32.32,63.06
272,2264.6,0.0500,-32.29,62.93
273,2290.9,0.0500,-32.16,63.29
274,2317.4,0.0500,-32.21,63.01
275,2344.2,0.0500,-32.16,63.14
276,2371.4,0.0500,-32.01,63.12
277,2398.8,0.0500,-31.96,63.05
278,2426.6,0.0500,-31.74,62.91
279,2454.7,0.0500,-31.72,62.74
280,2483.1,0.0500,-31.74,63.45
281,2511.9,0.0500,-31.60,63.29
282,2541.0,0.0500,-31.51,63.15
283,2570.4,0.0500,-31.47,63.31
284,2600.2,0.0500,-31.38,63.29
285,2630.3,0.0500,-31.32,63.21
286,2660.7,0.0500,-31.25,63.24
287,2691.5,0.0500,-31.20,63.29
288,2722.7,0.0500,-31.09,63.25
289,2754.2,0.0500,-31.04,63.33
290,2786.1,0.0500,-30.97,63.41
291,2818.4,0.0500,-30.94,63.68
292,2851.0,0.0500,-30.76,63.24
293,2884.0,0.0500,-30.75,63.35
294,2917.4,0.0500,-30.61,63.14
295,2951.2,0.0500,-30.55,63.33
296,2985.4,0.0500,-30.52,63.30
297,3020.0,0.0500,-30.42,63.25
298,3054.9,0.0500,-30.37,63.39
299,3090.3,0.0500,-30.26,62.93
300,3126.1,0.0500,-30.21,63.34
301,3162.3,0.0500,-30.09,63.30
302,3198.9,0.0500,-30.05,63.58
303,3235.9,0.0500,-29.97,63.29
304,3273.4,0.0500,-29.92,63.14
305,3311.3,0.0500,-29.80,63.30
306,3349.7,0.0500,-29.77,63.21
307,3388.4,0.0500,-29.70,63.51
308,3427.7,0.0500,-29.55,63.39
309,3467.4,0.0500,-29.58,63.15
310,3507.5,0.0500,-29.51,63.32
311,3548.1,0.0500,-29.40,63.22
312,3589.2,0.0500,-29.32,63.14
313,3630.8,0.0500,-29.19,62.89
314,3672.8,0.0500,-29.13,63.13
315,3715.4,0.0500,-29.06,63.31
316,3758.4,0.0500,-29.02,63.12
317,3801.9,0.0500,-28.95,63.21
318,3845.9,0.0500,-28.87,62.94
319,3890.5,0.0500,-28.80,63.23
320,3935.5,0.0500,-28.69,63.11
321,3981.1,0.0500,-28.59,63.11
322,4027.2,0.0500,-28.58,62.98
323,4073.8,0.0500,-28.49,63.07
324,4121.0,0.0500,-28.42,63.05
325,4168.7,0.0500,-28.33,63.20
326,4217.0,0.0500,-28.31,62.97
327,4265.8,0.0500,-28.19,63.07
328,4315.2,0.0500,-28.13,62.95
329,4365.2,0.0500,-28.06,62.97
330,4415.7,0.0500,-27.95,63.05
331,4466.8,0.0500,-27.89,62.94
332,4518.6,0.0500,-27.84,63.05
333,4570.9,0.0500,-27.75,63.04
334,4623.8,0.0500,-27.67,62.81
335,4677.4,0.0500,-27.60,62.87
336,4731.5,0.0500,-27.60,62.81
337,4786.3,0.0500,-27.46,62.94
338,4841.7,0.0500,-27.38,62.81
339,4897.8,0.0500,-27.30,62.75
340,4954.5,0.0500,-27.19,62.87
341,5011.9,0.0500,-27.12,62.49
342,5069.9,0.0500,-27.06,62.68
343,5128.6,0.0500,-26.98,62.55
344,5188.0,0.0500,-26.92,62.69
345,5248.1,0.0500,-26.83,62.63
346,5308.8,0.0500,-26.77,62.60
347,5370.3,0.0500,-26.69,62.51
348,5432.5,0.0500,-26.62,62.47
349,5495.4,0.0500,-26.54,62.50
350,5559.0,0.0500,-26.44,62.40
351,5623.4,0.0500,-26.36,62.58
352,5688.5,0.0500,-26.29,62.42
353,5754.4,0.0500,-26.23,62.42
354,5821.0,0.0500,-26.17,62.39
355,5888.4,0.0500,-26.07,62.31
356,5956.6,0.0500,-26.01,62.27
357,6025.6,0.0500,-25.94,62.29
358,6095.4,0.0500,-25.83,62.32
359,6166.0,0.0500,-25.77,62.18
360,6237.3,0.0500,-25.74,62.15
361,6309.6,0.0500,-25.70,62.04
362,6382.6,0.0500,-25.57,62.08
363,6456.5,0.0500,-25.46,61.91
364,6531.3,0.0500,-25.40,61.98
365,6606.9,0.0500,-25.32,61.96
366,6683.4,0.0500,-25.24,61.82
367,6760.8,0.0500,-25.18,61.85
368,6839.1,0.0500,-25.08,61.78
369,6918.3,0.0500,-25.02,61.85
370,6998.4,0.0500,-24.95,61.68
371,7079.5,0.0500,-24.87,61.57
372,7161.4,0.0500,-24.81,61.62
373,7244.4,0.0500,-24.71,61.55
374,7328.2,0.0500,-24.64,61.53
375,7413.1,0.0500,-24.57,61.29
376,7498.9,0.0500,-24.49,61.35
377,7585.8,0.0500,-24.42,61.46
378,7673.6,0.0500,-24.34,61.22
379,7762.5,0.0500,-24.26,61.26
380,7852.4,0.0500,-24.18,61.04
381,7943.3,0.0500,-24.12,60.96
382,8035.3,0.0500,-24.03,60.97
383,8128.3,0.0500,-23.96,60.95
384,8222.4,0.0500,-23.88,60.88
385,8317.6,0.0500,-23.90,60.86
386,8414.0,0.0500,-23.72,60.84
387,8511.4,0.0500,-23.66,60.75
388,8609.9,0.0500,-23.57,60.54
389,8709.6,0.0500,-23.49,60.57
390,8810.5,0.0500,-23.41,60.55
391,8912.5,0.0500,-23.36,60.40
392,9015.7,0.0500,-23.27,60.34
393,9120.1,0.0500,-23.20,60.26
394,9225.7,0.0500,-23.13,60.24
395,9332.5,0.0500,-23.04,60.08
396,9440.6,0.0500,-22.97,60.01
397,9549.9,0.0500,-22.89,60.03
398,9660.5,0.0500,-22.83,59.84
399,9772.4,0.0500,-22.75,59.84
400,9885.5,0.0500,-22.68,59.73
401,10000.0,0.0500,-22.58,59.69
402,10115.8,0.0500,-22.52,59.54
403,10232.9,0.0500,-22.43,59.51
404,10351.4,0.0500,-22.38,59.43
405,10471.3,0.0500,-22.29,59.27
406,10592.5,0.0500,-22.23,59.27
407,10715.2,0.0500,-22.23,59.10
408,10839.3,0.0500,-22.07,59.11
409,10964.8,0.0500,-22.08,58.92
410,11091.7,0.0500,-22.00,58.80
411,11220.2,0.0500,-21.85,58.81
412,11350.1,0.0500,-21.78,58.69
413,11481.5,0.0500,-21.70,58.60
414,11614.5,0.0500,-21.63,58.49
415,11749.0,0.0500,-21.62,58.36
416,11885.0,0.0500,-21.54,58.28
417,12022.6,0.0500,-21.40,58.20
418,12161.9,0.0500,-21.33,58.10
419,12302.7,0.0500,-21.27,57.95
420,12445.1,0.0500,-21.18,57.92
421,12589.3,0.0500,-21.10,57.84
422,12735.0,0.0500,-21.04,57.74
423,12882.5,0.0500,-20.95,57.56
424,13031.7,0.0500,-20.89,57.48
425,13182.6,0.0500,-20.82,57.36
426,13335.2,0.0500,-20.72,57.22
427,13489.6,0.0500,-20.66,57.15
428,13645.8,0.0500,-20.68,57.02
429,13803.8,0.0500,-20.62,56.91
430,13963.7,0.0500,-20.53,56.81
431,14125.4,0.0500,-20.46,56.72
432,14288.9,0.0500,-20.29,56.64
433,14454.4,0.0500,-20.31,56.44
434,14621.8,0.0500,-20.23,56.31
435,14791.1,0.0500,-20.08,56.19
436,14962.4,0.0500,-20.09,56.03
437,15135.6,0.0500,-20.03,55.99
438,15310.9,0.0500,-19.87,55.85
439,15488.2,0.0500,-19.89,55.72
440,15667.5,0.0500,-19.72,55.62
441,15848.9,0.0500,-19.65,55.44
442,16032.5,0.0500,-19.65,55.32
443,16218.1,0.0500,-19.52,55.20
444,16405.9,0.0500,-19.44,55.05
445,16595.9,0.0500,-19.44,54.94
446,16788.0,0.0500,-19.29,54.86
447,16982.4,0.0500,-19.22,54.70
448,17179.1,0.0500,-19.15,54.59
449,17378.0,0.0500,-19.08,54.41
450,17579.2,0.0500,-19.00,54.26
451,17782.8,0.0500,-18.93,54.13
452,17988.7,0.0500,-18.86,54.00
453,18197.0,0.0500,-18.79,53.88
454,18407.7,0.0500,-18.79,53.70
455,18620.9,0.0500,-18.65,53.60
456,18836.5,0.0500,-18.65,53.44
457,19054.6,0.0500,-18.50,53.28
458,19275.2,0.0500,-18.44,53.20
459,19498.4,0.0500,-18.37,53.02
460,19724.2,0.0500,-18.29,52.87
461,19952.6,0.0500,-18.22,52.70
462,20183.7,0.0500,-18.15,52.58
463,20417.4,0.0500,-18.15,52.40
464,20653.8,0.0500,-18.08,52.29
465,20893.0,0.0500,-18.01,52.13
466,21134.9,0.0500,-17.92,51.94
467,21379.6,0.0500,-17.79,51.76
468,21627.2,0.0500,-17.72,51.65
469,21877.6,0.0500,-17.66,51.56
470,22130.9,0.0500,-17.58,51.38
471,22387.2,0.0500,-17.50,51.21
472,22646.4,0.0500,-17.43,51.01
473,22908.7,0.0500,-17.37,50.86
474,23173.9,0.0500,-17.30,50.67
475,23442.3,0.0500,-17.23,50.56
476,23713.7,0.0500,-17.21,50.39
477,23988.3,0.0500,-17.08,50.27
478,24266.1,0.0500,-17.02,50.10
479,24547.1,0.0500,-16.95,49.89
480,24831.3,0.0500,-16.87,49.76
481,25118.9,0.0500,-16.80,49.54
482,25409.7,0.0500,-16.74,49.36
483,25704.0,0.0500,-16.72,49.24
484,26001.6,0.0500,-16.64,48.97
485,26302.7,0.0500,-16.56,48.88
486,26607.3,0.0500,-16.49,48.66
487,26915.3,0.0500,-16.43,48.50
488,27227.0,0.0500,-16.30,48.38
489,27542.3,0.0500,-16.22,48.17
490,27861.2,0.0500,-16.20,47.94
491,28183.8,0.0500,-16.08,47.75
492,28510.2,0.0500,-16.01,47.60
493,28840.3,0.0500,-15.98,47.42
494,29174.3,0.0500,-15.91,47.25
495,29512.1,0.0500,-15.86,47.08
496,29853.8,0.0500,-15.77,46.88
497,30199.5,0.0500,-15.65,46.73
498,30549.2,0.0500,-15.62,46.46
499,30903.0,0.0500,-15.52,46.28
500,31260.8,0.0500,-15.44,46.05
501,31622.8,0.0500,-15.41,45.82
502,31989.0,0.0500,-15.33,45.68
503,32359.4,0.0500,-15.26,45.53
504,32734.1,0.0500,-15.19,45.22
505,33113.1,0.0500,-15.11,45.02
506,33496.5,0.0500,-15.04,44.74
507,33884.4,0.0500,-14.96,44.62
508,34276.8,0.0500,-14.88,44.45
509,34673.7,0.0500,-14.81,44.22
510,35075.2,0.0500,-14.71,43.97
511,35481.3,0.0500,-14.64,43.69
512,35892.2,0.0500,-14.57,43.56
513,36307.8,0.0500,-14.49,43.37
514,36728.2,0.0500,-14.42,43.06
515,37153.5,0.0500,-14.34,42.83
516,37583.7,0.0500,-14.26,42.54
517,38018.9,0.0500,-14.17,42.31
518,38459.2,0.0500,-14.11,42.08
519,38904.5,0.0500,-14.03,41.86
520,39355.0,0.0500,-13.94,41.57
521,39810.7,0.0500,-13.86,41.31
522,40271.7,0.0500,-13.79,41.03
523,40738.0,0.0500,-13.71,40.80
524,41209.8,0.0500,-13.62,40.52
525,41686.9,0.0500,-13.55,40.23
526,42169.7,0.0500,-13.46,39.94
527,42658.0,0.0500,-13.40,39.66
528,43151.9,0.0500,-13.30,39.42
529,43651.6,0.0500,-13.23,39.06
530,44157.0,0.0500,-13.13,38.75
531,44668.4,0.0500,-13.05,38.49
532,45185.6,0.0500,-12.96,38.21
533,45708.8,0.0500,-12.89,37.82
534,46238.1,0.0500,-12.80,37.57
535,46773.5,0.0500,-12.70,37.10
536,47315.1,0.0500,-12.64,36.85
537,47863.0,0.0500,-12.54,36.40
538,48417.2,0.0500,-12.45,36.08
539,48977.9,0.0500,-12.37,35.80
540,49545.0,0.0500,-12.28,35.32
541,50118.7,0.0500,-12.18,35.02
542,50699.1,0.0500,-12.08,34.55
543,51286.1,0.0500,-12.00,34.14
544,51880.0,0.0500,-11.89,33.74
545,52480.7,0.0500,-11.81,33.34
546,53088.4,0.0500,-11.75,32.90
547,53703.2,0.0500,-11.64,32.44
548,54325.0,0.0500,-11.52,31.91
549,54954.1,0.0500,-11.46,31.44
550,55590.4,0.0500,-11.41,30.80
551,56234.1,0.0500,-11.27,30.39
552,56885.3,0.0500,-11.19,29.93
553,57544.0,0.0500,-11.11,29.62
554,58210.3,0.0500,-10.99,29.02
555,58884.4,0.0500,-10.89,28.38
556,59566.2,0.0500,-10.80,27.99
557,60256.0,0.0500,-10.73,27.32
558,60953.7,0.0500,-10.64,26.73
559,61659.5,0.0500,-10.52,26.05
560,62373.5,0.0500,-10.42,25.47
561,63095.7,0.0500,-10.36,24.91
562,63826.3,0.0500,-10.25,24.28
563,64565.4,0.0500,-10.14,23.77
564,65313.1,0.0500,-10.05,22.98
565,66069.3,0.0500,-10.00,22.13
566,66834.4,0.0500,-9.88,21.60
567,67608.3,0.0500,-9.78,20.83
568,68391.2,0.0500,-9.71,19.98
569,69183.1,0.0500,-9.64,19.40
570,69984.2,0.0500,-9.53,18.29
571,70794.6,0.0500,-9.44,17.53
572,71614.3,0.0500,-9.35,16.73
573,72443.6,0.0500,-9.27,15.90
574,73282.5,0.0500,-9.17,15.07
575,74131.0,0.0500,-9.08,14.18
576,74989.4,0.0500,-9.01,13.57
577,75857.8,0.0500,-8.92,12.25
578,76736.1,0.0500,-8.85,11.34
579,77624.7,0.0500,-8.78,10.26
580,78523.6,0.0500,-8.71,9.25
581,79432.8,0.0500,-8.62,8.28
582,80352.6,0.0500,-8.55,7.25
583,81283.1,0.0500,-8.49,6.25
584,82224.3,0.0500,-8.43,5.28
585,83176.4,0.0500,-8.36,3.91
586,84139.5,0.0500,-8.26,2.76
587,85113.8,0.0500,-8.28,2.00
588,86099.4,0.0500,-8.20,0.32
589,87096.4,0.0500,-8.13,-0.58
590,88104.9,0.0500,-8.05,-1.92
591,89125.1,0.0500,-8.05,-3.24
592,90157.1,0.0500,-8.00,-4.33
593,91201.1,0.0500,-7.98,-5.65
594,92257.1,0.0500,-7.96,-6.96
595,93325.4,0.0500,-7.97,-8.09
596,94406.1,0.0500,-7.94,-9.44
597,95499.3,0.0500,-7.91,-10.82
598,96605.1,0.0500,-7.88,-12.16
599,97723.7,0.0500,-7.91,-13.41
600,98855.3,0.0500,-7.90,-15.18
601,100000.0,0.0500,-7.91,-16.53
602,101157.9,0.0500,-7.93,-18.04
603,102329.3,0.0500,-8.00,-19.30
604,103514.2,0.0500,-7.98,-20.42
605,104712.9,0.0500,-8.05,-21.70
606,105925.4,0.0500,-8.03,-23.24
607,107151.9,0.0500,-8.01,-24.52
608,108392.7,0.0500,-8.11,-25.46
609,109647.8,0.0500,-8.10,-26.90
610,110917.5,0.0500,-8.23,-28.38
611,112201.8,0.0500,-8.23,-29.75
612,113501.1,0.0500,-8.39,-31.03
613,114815.4,0.0500,-8.41,-32.31
614,116144.9,0.0500,-8.54,-33.57
615,117489.8,0.0500,-8.69,-34.91
616,118850.2,0.0500,-8.64,-36.17
617,120226.4,0.0500,-8.75,-37.18
618,121618.6,0.0500,-8.86,-38.09
619,123026.9,0.0500,-8.95,-39.62
620,124451.5,0.0500,-9.07,-40.00
621,125892.5,0.0500,-9.16,-41.80
622,127350.3,0.0500,-9.28,-43.07
623,128825.0,0.0500,-9.39,-44.71
624,130316.7,0.0500,-9.48,-44.88
625,131825.7,0.0500,-9.64,-46.27
626,133352.1,0.0500,-9.73,-47.55
627,134896.3,0.0500,-9.84,-48.59
628,136458.3,0.0500,-9.88,-48.70
629,138038.4,0.0500,-10.05,-49.34
630,139636.8,0.0500,-10.25,-50.92
631,141253.8,0.0500,-10.26,-51.77
632,142889.4,0.0500,-10.43,-54.19
633,144544.0,0.0500,-10.56,-53.53
634,146217.7,0.0500,-10.70,-54.40
635,147910.8,0.0500,-10.86,-55.62
636,149623.6,0.0500,-11.11,-55.75
637,151356.1,0.0500,-11.13,-56.89
638,153108.7,0.0500,-11.13,-57.85
639,154881.7,0.0500,-11.38,-58.69
640,156675.1,0.0500,-11.52,-58.94
641,158489.3,0.0500,-11.66,-59.55
642,160324.5,0.0500,-11.79,-60.72
643,162181.0,0.0500,-11.95,-60.84
644,164059.0,0.0500,-12.55,-63.60
