#, Frequency (Hz), Amplitude (Vpp), Gain (dB), Phase (°)
1,100.0,0.0500,-49.58,48.81
2,101.2,0.0500,-49.46,50.39
3,102.3,0.0500,-49.37,48.86
4,103.5,0.0500,-49.33,50.03
5,104.7,0.0500,-49.18,50.20
6,105.9,0.0500,-49.40,50.35
7,107.2,0.0500,-49.32,49.28
8,108.4,0.0500,-49.31,49.04
9,109.6,0.0500,-49.17,48.68
10,110.9,0.0500,-48.94,49.66
11,112.2,0.0500,-49.14,47.64
12,113.5,0.0500,-48.74,51.08
13,114.8,0.0500,-49.07,49.91
14,116.1,0.0500,-48.61,48.88
15,117.5,0.0500,-48.89,50.15
16,118.9,0.0500,-48.73,49.60
17,120.2,0.0500,-48.84,50.00
18,121.6,0.0500,-48.80,48.32
19,123.0,0.0500,-48.74,51.14
20,124.5,0.0500,-48.52,49.31
21,125.9,0.0500,-48.42,49.54
22,127.4,0.0500,-48.49,47.84
23,128.8,0.0500,-48.41,49.93
24,130.3,0.0500,-48.25,51.71
25,131.8,0.0500,-48.30,49.32
26,133.4,0.0500,-48.15,50.19
27,134.9,0.0500,-48.04,49.68
28,136.5,0.0500,-48.08,51.00
29,138.0,0.0500,-48.19,49.80
30,139.6,0.0500,-47.86,49.07
31,141.3,0.0500,-47.93,50.49
32,142.9,0.0500,-47.79,49.91
33,144.5,0.0500,-47.75,48.65
34,146.2,0.0500,-47.57,49.58
35,147.9,0.0500,-47.79,49.80
36,149.6,0.0500,-47.67,49.42
37,151.4,0.0500,-47.68,48.32
38,153.1,0.0500,-47.67,48.85
39,154.9,0.0500,-47.57,48.97
40,156.7,0.0500,-47.47,48.76
41,158.5,0.0500,-47.33,49.34
42,160.3,0.0500,-47.19,50.12
43,162.2,0.0500,-47.29,49.64
44,164.1,0.0500,-47.28,49.22
45,166.0,0.0500,-47.13,49.98
46,167.9,0.0500,-47.22,49.32
47,169.8,0.0500,-46.92,49.82
48,171.8,0.0500,-46.91,50.25
49,173.8,0.0500,-46.95,49.72
50,175.8,0.0500,-46.85,49.14
51,177.8,0.0500,-46.86,50.03
52,179.9,0.0500,-46.84,50.31
53,182.0,0.0500,-46.65,48.73
54,184.1,0.0500,-46.68,49.65
55,186.2,0.0500,-46.53,49.93
56,188.4,0.0500,-46.60,49.93
57,190.5,0.0500,-46.54,50.09
58,192.8,0.0500,-46.30,50.02
59,195.0,0.0500,-46.45,51.06
60,197.2,0.0500,-46.29,49.41
61,199.5,0.0500,-46.18,51.12
62,201.8,0.0500,-46.28,49.86
63,204.2,0.0500,-46.11,50.52
64,206.5,0.0500,-46.11,50.18
65,208.9,0.0500,-46.07,50.50
66,211.3,0.0500,-45.88,49.37
67,213.8,0.0500,-45.90,50.27
68,216.3,0.0500,-45.86,49.51
69,218.8,0.0500,-45.76,49.50
70,221.3,0.0500,-45.75,50.70
71,223.9,0.0500,-45.57,49.27
72,226.5,0.0500,-45.59,49.76
73,229.1,0.0500,-45.63,50.11
74,231.7,0.0500,-45.52,49.70
75,234.4,0.0500,-45.55,49.05
76,237.1,0.0500,-45.45,50.01
77,239.9,0.0500,-45.62,50.12
78,242.7,0.0500,-45.43,49.80
79,245.5,0.0500,-45.30,49.73
80,248.3,0.0500,-45.23,50.48
81,251.2,0.0500,-45.20,50.18
82,254.1,0.0500,-45.14,50.25
83,257.0,0.0500,-45.10,50.27
84,260.0,0.0500,-45.10,50.55
85,263.0,0.0500,-45.03,50.30
86,266.1,0.0500,-44.93,50.51
87,269.2,0.0500,-44.83,50.27
88,272.3,0.0500,-44.78,51.15
89,275.4,0.0500,-44.80,50.38
90,278.6,0.0500,-44.82,50.58
91,281.8,0.0500,-44.52,50.60
92,285.1,0.0500,-44.61,50.08
93,288.4,0.0500,-44.58,50.52
94,291.7,0.0500,-44.56,50.79
95,295.1,0.0500,-44.59,49.84
96,298.5,0.0500,-44.34,50.47
97,302.0,0.0500,-44.46,51.39
98,305.5,0.0500,-44.24,51.16
99,309.0,0.0500,-44.24,51.01
100,312.6,0.0500,-44.28,50.70
101,316.2,0.0500,-44.17,51.09
102,319.9,0.0500,-44.08,50.89
103,323.6,0.0500,-43.93,50.73
104,327.3,0.0500,-44.00,51.33
105,331.1,0.0500,-43.86,50.42
106,335.0,0.0500,-43.80,51.12
107,338.8,0.0500,-43.81,51.50
108,342.8,0.0500,-43.78,51.10
109,346.7,0.0500,-43.62,51.08
110,350.8,0.0500,-43.72,51.19
111,354.8,0.0500,-43.63,50.84
112,358.9,0.0500,-43.52,51.11
113,363.1,0.0500,-43.53,51.29
114,367.3,0.0500,-43.44,51.62
115,371.5,0.0500,-43.41,51.46
116,375.8,0.0500,-43.37,51.45
117,380.2,0.0500,-43.23,51.96
118,384.6,0.0500,-43.25,51.20
119,389.0,0.0500,-43.16,52.15
120,393.6,0.0500,-43.02,51.15
121,398.1,0.0500,-43.08,52.16
122,402.7,0.0500,-43.02,51.72
123,407.4,0.0500,-42.92,51.58
124,412.1,0.0500,-42.85,51.71
125,416.9,0.0500,-42.65,51.57
126,421.7,0.0500,-42.67,51.67
127,426.6,0.0500,-42.71,51.88
128,431.5,0.0500,-42.54,51.69
129,436.5,0.0500,-42.57,51.83
130,441.6,0.0500,-42.44,52.11
131,446.7,0.0500,-42.42,52.68
132,451.9,0.0500,-42.37,52.39
133,457.1,0.0500,-42.33,52.03
134,462.4,0.0500,-42.26,52.34
135,467.7,0.0500,-42.16,52.60
136,473.2,0.0500,-42.15,52.44
137,478.6,0.0500,-42.06,51.85
138,484.2,0.0500,-42.04,52.56
139,489.8,0.0500,-42.03,52.42
140,495.5,0.0500,-41.95,52.25
141,501.2,0.0500,-41.83,52.36
142,507.0,0.0500,-41.81,52.72
143,512.9,0.0500,-41.73,52.03
144,518.8,0.0500,-41.74,52.48
145,524.8,0.0500,-41.67,52.59
146,530.9,0.0500,-41.56,52.99
147,537.0,0.0500,-41.51,52.60
148,543.3,0.0500,-41.48,52.92
149,549.5,0.0500,-41.35,52.95
150,555.9,0.0500,-41.38,53.20
151,562.3,0.0500,-41.32,53.02
152,568.9,0.0500,-41.22,53.15
153,575.4,0.0500,-41.20,53.09
154,582.1,0.0500,-41.10,53.46
155,588.8,0.0500,-40.99,53.33
156,595.7,0.0500,-41.05,53.21
157,602.6,0.0500,-40.97,53.49
158,609.5,0.0500,-40.85,53.28
159,616.6,0.0500,-40.81,53.65
160,623.7,0.0500,-40.73,53.47
161,631.0,0.0500,-40.74,53.30
162,638.3,0.0500,-40.59,53.58
163,645.7,0.0500,-40.57,53.51
164,653.1,0.0500,-40.45,53.59
165,660.7,0.0500,-40.44,53.86
166,668.3,0.0500,-40.32,54.19
167,676.1,0.0500,-40.37,53.89
168,683.9,0.0500,-40.24,53.68
169,691.8,0.0500,-40.21,53.42
170,699.8,0.0500,-40.11,53.80
171,707.9,0.0500,-40.05,54.63
172,716.1,0.0500,-39.98,54.22
173,724.4,0.0500,-39.93,53.85
174,732.8,0.0500,-39.87,53.97
175,741.3,0.0500,-39.89,54.24
176,749.9,0.0500,-39.68,54.45
177,758.6,0.0500,-39.74,54.48
178,767.4,0.0500,-39.63,53.56
179,776.2,0.0500,-39.77,54.78
180,785.2,0.0500,-39.48,54.69
181,794.3,0.0500,-39.51,54.24
182,803.5,0.0500,-39.46,54.33
183,812.8,0.0500,-39.32,54.21
184,822.2,0.0500,-39.28,54.51
185,831.8,0.0500,-39.23,54.74
186,841.4,0.0500,-39.23,54.44
187,851.1,0.0500,-39.14,54.89
188,861.0,0.0500,-39.04,54.80
189,871.0,0.0500,-38.99,54.80
190,881.0,0.0500,-38.93,54.87
191,891.3,0.0500,-38.88,54.73
192,901.6,0.0500,-38.80,55.20
193,912.0,0.0500,-38.76,55.06
194,922.6,0.0500,-38.69,55.20
195,933.3,0.0500,-38.61,54.99
196,944.1,0.0500,-38.52,55.15
197,955.0,0.0500,-38.50,55.20
198,966.1,0.0500,-38.40,55.06
199,977.2,0.0500,-38.36,55.55
200,988.6,0.0500,-38.22,55.19
201,1000.0,0.0500,-38.32,54.95
202,1011.6,0.0500,-38.17,55.56
203,1023.3,0.0500,-38.16,54.90
204,1035.1,0.0500,-38.04,55.75
205,1047.1,0.0500,-37.93,55.41
206,1059.3,0.0500,-37.92,55.20
207,1071.5,0.0500,-37.85,55.66
208,1083.9,0.0500,-37.82,55.23
209,1096.5,0.0500,-37.70,55.36
210,1109.2,0.0500,-37.63,55.86
211,1122.0,0.0500,-37.49,56.15
212,1135.0,0.0500,-37.57,55.70
213,1148.2,0.0500,-37.36,55.29
214,1161.4,0.0500,-37.34,56.00
215,1174.9,0.0500,-37.34,56.07
216,1188.5,0.0500,-37.32,55.69
217,1202.3,0.0500,-37.21,55.79
218,1216.2,0.0500,-37.13,55.94
219,1230.3,0.0500,-37.09,55.97
220,1244.5,0.0500,-37.03,55.87
221,1258.9,0.0500,-36.99,55.89
222,1273.5,0.0500,-36.92,55.88
223,1288.2,0.0500,-36.81,56.25
224,1303.2,0.0500,-36.74,56.18
225,1318.3,0.0500,-36.70,56.13
226,1333.5,0.0500,-36.65,56.28
227,1349.0,0.0500,-36.52,56.49
228,1364.6,0.0500,-36.52,56.32
229,1380.4,0.0500,-36.43,56.95
230,1396.4,0.0500,-36.37,56.29
231,1412.5,0.0500,-36.36,56.27
232,1428.9,0.0500,-36.20,56.27
233,1445.4,0.0500,-36.13,56.65
234,1462.2,0.0500,-36.09,56.57
235,1479.1,0.0500,-36.03,56.31
236,1496.2,0.0500,-35.94,56.56
237,1513.6,0.0500,-36.01,56.87
238,1531.1,0.0500,-35.87,56.53
239,1548.8,0.0500,-35.74,56.64
240,1566.8,0.0500,-35.73,56.92
241,1584.9,0.0500,-35.61,56.95
242,1603.2,0.0500,-35.57,56.37
243,1621.8,0.0500,-35.57,56.57
244,1640.6,0.0500,-35.41,56.53
245,1659.6,0.0500,-35.31,56.74
246,1678.8,0.0500,-35.33,56.41
247,1698.2,0.0500,-35.25,56.68
248,1717.9,0.0500,-35.35,57.28
249,1737.8,0.0500,-35.11,56.82
250,1757.9,0.0500,-35.04,57.99
251,1778.3,0.0500,-35.00,57.48
252,1798.9,0.0500,-34.96,56.81
253,1819.7,0.0500,-34.89,57.26
254,1840.8,0.0500,-34.90,57.05
255,1862.1,0.0500,-34.80,57.46
256,1883.6,0.0500,-34.70,56.81
257,1905.5,0.0500,-34.55,57.17
258,1927.5,0.0500,-34.49,57.59
259,1949.8,0.0500,-34.47,57.19
260,1972.4,0.0500,-34.43,57.19
261,1995.3,0.0500,-34.35,57.42
262,2018.4,0.0500,-34.31,57.51
263,2041.7,0.0500,-34.22,57.47
264,2065.4,0.0500,-34.16,57.38
265,2089.3,0.0500,-34.09,57.51
266,2113.5,0.0500,-34.03,57.35
267,2138.0,0.0500,-33.95,57.62
268,2162.7,0.0500,-33.87,57.53
269,2187.8,0.0500,-33.82,57.43
270,2213.1,0.0500,-33.77,57.65
271,2238.7,0.0500,-33.73,57.46
272,2264.6,0.0500,-33.64,57.56
273,2290.9,0.0500,-33.56,57.36
274,2317.4,0.0500,-33.51,57.83
275,2344.2,0.0500,-33.42,57.59
276,2371.4,0.0500,-33.34,57.49
277,2398.8,0.0500,-33.35,57.95
278,2426.6,0.0500,-33.16,57.57
279,2454.7,0.0500,-33.17,57.98
280,2483.1,0.0500,-33.09,57.62
281,2511.9,0.0500,-33.00,57.82
282,2541.0,0.0500,-32.94,57.77
283,2570.4,0.0500,-32.92,57.79
284,2600.2,0.0500,-32.83,57.94
285,2630.3,0.0500,-32.75,58.09
286,2660.7,0.0500,-32.68,57.79
287,2691.5,0.0500,-32.68,57.85
288,2722.7,0.0500,-32.52,57.66
289,2754.2,0.0500,-32.50,58.01
290,2786.1,0.0500,-32.41,58.16
291,2818.4,0.0500,-32.32,58.06
292,2851.0,0.0500,-32.26,58.23
293,2884.0,0.0500,-32.21,57.98
294,2917.4,0.0500,-32.14,57.98
295,2951.2,0.0500,-32.13,58.21
296,2985.4,0.0500,-31.99,58.18
297,3020.0,0.0500,-31.93,58.10
298,3054.9,0.0500,-31.89,58.25
299,3090.3,0.0500,-31.76,58.27
300,3126.1,0.0500,-31.75,58.23
301,3162.3,0.0500,-31.65,58.26
302,3198.9,0.0500,-31.63,58.40
303,3235.9,0.0500,-31.53,58.05
304,3273.4,0.0500,-31.47,58.28
305,3311.3,0.0500,-31.42,58.35
306,3349.7,0.0500,-31.28,58.44
307,3388.4,0.0500,-31.26,58.37
308,3427.7,0.0500,-31.17,58.37
309,3467.4,0.0500,-31.10,58.62
310,3507.5,0.0500,-31.06,58.45
311,3548.1,0.0500,-31.01,58.34
312,3589.2,0.0500,-30.91,57.97
313,3630.8,0.0500,-30.80,58.44
314,3672.8,0.0500,-30.76,58.07
315,3715.4,0.0500,-30.71,58.40
316,3758.4,0.0500,-30.64,58.42
317,3801.9,0.0500,-30.56,58.46
318,3845.9,0.0500,-30.50,58.30
319,3890.5,0.0500,-30.43,58.35
320,3935.5,0.0500,-30.36,58.34
321,3981.1,0.0500,-30.26,58.41
322,4027.2,0.0500,-30.24,58.47
323,4073.8,0.0500,-30.16,58.42
324,4121.0,0.0500,-30.08,58.35
325,4168.7,0.0500,-30.01,58.50
326,4217.0,0.0500,-29.96,58.54
327,4265.8,0.0500,-29.88,58.48
328,4315.2,0.0500,-29.83,58.39
329,4365.2,0.0500,-29.75,58.48
330,4415.7,0.0500,-29.69,58.54
331,4466.8,0.0500,-29.60,58.36
332,4518.6,0.0500,-29.56,58.41
333,4570.9,0.0500,-29.44,58.47
334,4623.8,0.0500,-29.39,58.45
335,4677.4,0.0500,-29.33,58.35
336,4731.5,0.0500,-29.25,58.38
337,4786.3,0.0500,-29.20,58.42
338,4841.7,0.0500,-29.11,58.40
339,4897.8,0.0500,-29.04,58.47
340,4954.5,0.0500,-28.94,58.48
341,5011.9,0.0500,-28.87,58.42
342,5069.9,0.0500,-28.85,58.46
343,5128.6,0.0500,-28.74,58.58
344,5188.0,0.0500,-28.71,58.46
345,5248.1,0.0500,-28.64,58.39
346,5308.8,0.0500,-28.54,58.32
347,5370.3,0.0500,-28.52,58.31
348,5432.5,0.0500,-28.40,58.30
349,5495.4,0.0500,-28.33,58.39
350,5559.0,0.0500,-28.22,58.37
351,5623.4,0.0500,-28.22,58.31
352,5688.5,0.0500,-28.12,58.32
353,5754.4,0.0500,-28.08,58.33
354,5821.0,0.0500,-27.98,58.18
355,5888.4,0.0500,-27.94,58.35
356,5956.6,0.0500,-27.86,58.20
357,6025.6,0.0500,-27.79,58.13
358,6095.4,0.0500,-27.68,58.40
359,6166.0,0.0500,-27.64,58.24
360,6237.3,0.0500,-27.58,58.24
361,6309.6,0.0500,-27.50,58.17
362,6382.6,0.0500,-27.43,58.20
363,6456.5,0.0500,-27.35,58.25
364,6531.3,0.0500,-27.29,58.12
365,6606.9,0.0500,-27.23,58.17
366,6683.4,0.0500,-27.14,58.17
367,6760.8,0.0500,-27.05,57.96
368,6839.1,0.0500,-26.98,58.07
369,6918.3,0.0500,-26.92,58.10
370,6998.4,0.0500,-26.89,58.02
371,7079.5,0.0500,-26.78,58.03
372,7161.4,0.0500,-26.70,58.04
373,7244.4,0.0500,-26.60,57.93
374,7328.2,0.0500,-26.58,57.87
375,7413.1,0.0500,-26.51,57.75
376,7498.9,0.0500,-26.43,57.88
377,7585.8,0.0500,-26.34,57.74
378,7673.6,0.0500,-26.28,57.67
379,7762.5,0.0500,-26.23,57.72
380,7852.4,0.0500,-26.15,57.62
381,7943.3,0.0500,-26.09,57.64
382,8035.3,0.0500,-25.99,57.63
383,8128.3,0.0500,-25.93,57.64
384,8222.4,0.0500,-25.88,57.60
385,8317.6,0.0500,-25.82,57.55
386,8414.0,0.0500,-25.72,57.51
387,8511.4,0.0500,-25.65,57.55
388,8609.9,0.0500,-25.59,57.38
389,8709.6,0.0500,-25.51,57.33
390,8810.5,0.0500,-25.45,57.30
391,8912.5,0.0500,-25.38,57.33
392,9015.7,0.0500,-25.31,57.28
393,9120.1,0.0500,-25.24,57.13
394,9225.7,0.0500,-25.16,57.17
395,9332.5,0.0500,-25.12,57.07
396,9440.6,0.0500,-25.03,57.03
397,9549.9,0.0500,-24.95,56.98
398,9660.5,0.0500,-24.89,57.03
399,9772.4,0.0500,-24.83,56.80
400,9885.5,0.0500,-24.76,56.92
401,10000.0,0.0500,-24.69,56.80
402,10115.8,0.0500,-24.59,56.82
403,10232.9,0.0500,-24.53,56.64
404,10351.4,0.0500,-24.47,56.66
405,10471.3,0.0500,-24.41,56.57
406,10592.5,0.0500,-24.34,56.52
407,10715.2,0.0500,-24.25,56.42
408,10839.3,0.0500,-24.19,56.35
409,10964.8,0.0500,-24.11,56.25
410,11091.7,0.0500,-24.05,56.28
411,11220.2,0.0500,-23.97,56.11
412,11350.1,0.0500,-23.91,56.10
413,11481.5,0.0500,-23.83,56.11
414,11614.5,0.0500,-23.76,56.07
415,11749.0,0.0500,-23.68,55.89
416,11885.0,0.0500,-23.62,55.93
417,12022.6,0.0500,-23.55,55.89
418,12161.9,0.0500,-23.49,55.77
419,12302.7,0.0500,-23.43,55.68
420,12445.1,0.0500,-23.35,55.55
421,12589.3,0.0500,-23.28,55.62
422,12735.0,0.0500,-23.22,55.47
423,12882.5,0.0500,-23.14,55.39
424,13031.7,0.0500,-23.07,55.32
425,13182.6,0.0500,-23.00,55.33
426,13335.2,0.0500,-22.92,55.16
427,13489.6,0.0500,-22.87,55.09
428,13645.8,0.0500,-22.81,55.06
429,13803.8,0.0500,-22.74,55.02
430,13963.7,0.0500,-22.67,54.82
431,14125.4,0.0500,-22.59,54.79
432,14288.9,0.0500,-22.53,54.62
433,14454.4,0.0500,-22.47,54.64
434,14621.8,0.0500,-22.39,54.59
435,14791.1,0.0500,-22.31,54.48
436,14962.4,0.0500,-22.25,54.45
437,15135.6,0.0500,-22.18,54.30
438,15310.9,0.0500,-22.13,54.18
439,15488.2,0.0500,-22.05,54.06
440,15667.5,0.0500,-21.98,54.07
441,15848.9,0.0500,-21.91,53.96
442,16032.5,0.0500,-21.84,53.84
443,16218.1,0.0500,-21.76,53.83
444,16405.9,0.0500,-21.69,53.70
445,16595.9,0.0500,-21.63,53.60
446,16788.0,0.0500,-21.56,53.48
447,16982.4,0.0500,-21.50,53.44
448,17179.1,0.0500,-21.43,53.38
449,17378.0,0.0500,-21.36,53.27
450,17579.2,0.0500,-21.30,53.14
451,17782.8,0.0500,-21.22,53.07
452,17988.7,0.0500,-21.15,52.97
453,18197.0,0.0500,-21.09,52.85
454,18407.7,0.0500,-21.03,52.72
455,18620.9,0.0500,-20.97,52.72
456,18836.5,0.0500,-20.89,52.56
457,19054.6,0.0500,-20.83,52.47
458,19275.2,0.0500,-20.75,52.42
459,19498.4,0.0500,-20.69,52.24
460,19724.2,0.0500,-20.64,52.07
461,19952.6,0.0500,-20.56,52.06
462,20183.7,0.0500,-20.49,51.94
463,20417.4,0.0500,-20.51,51.83
464,20653.8,0.0500,-20.36,51.77
465,20893.0,0.0500,-20.29,51.65
466,21134.9,0.0500,-20.22,51.60
467,21379.6,0.0500,-20.16,51.43
468,21627.2,0.0500,-20.09,51.35
469,21877.6,0.0500,-20.03,51.24
470,22130.9,0.0500,-19.96,51.09
471,22387.2,0.0500,-19.89,50.98
472,22646.4,0.0500,-19.82,50.90
473,22908.7,0.0500,-19.84,50.74
474,23173.9,0.0500,-19.68,50.63
475,23442.3,0.0500,-19.62,50.58
476,23713.7,0.0500,-19.55,50.47
477,23988.3,0.0500,-19.48,50.35
478,24266.1,0.0500,-19.42,50.23
479,24547.1,0.0500,-19.35,50.10
480,24831.3,0.0500,-19.28,50.00
481,25118.9,0.0500,-19.21,49.86
482,25409.7,0.0500,-19.16,49.76
483,25704.0,0.0500,-19.09,49.64
484,26001.6,0.0500,-19.02,49.53
485,26302.7,0.0500,-18.94,49.37
486,26607.3,0.0500,-18.88,49.27
487,26915.3,0.0500,-18.80,49.18
488,27227.0,0.0500,-18.74,49.08
489,27542.3,0.0500,-18.68,48.90
490,27861.2,0.0500,-18.69,48.82
491,28183.8,0.0500,-18.55,48.69
492,28510.2,0.0500,-18.47,48.55
493,28840.3,0.0500,-18.39,48.46
494,29174.3,0.0500,-18.33,48.28
495,29512.1,0.0500,-18.28,48.16
496,29853.8,0.0500,-18.22,48.10
497,30199.5,0.0500,-18.14,47.94
498,30549.2,0.0500,-18.06,47.76
499,30903.0,0.0500,-18.01,47.70
500,31260.8,0.0500,-17.94,47.48
501,31622.8,0.0500,-17.87,47.35
502,31989.0,0.0500,-17.81,47.23
503,32359.4,0.0500,-17.72,47.03
504,32734.1,0.0500,-17.66,46.95
505,33113.1,0.0500,-17.59,46.81
506,33496.5,0.0500,-17.53,46.76
507,33884.4,0.0500,-17.45,46.50
508,34276.8,0.0500,-17.38,46.43
509,34673.7,0.0500,-17.38,46.21
510,35075.2,0.0500,-17.24,46.11
511,35481.3,0.0500,-17.16,45.92
512,35892.2,0.0500,-17.10,45.81
513,36307.8,0.0500,-17.03,45.66
514,36728.2,0.0500,-16.96,45.52
515,37153.5,0.0500,-16.90,45.38
516,37583.7,0.0500,-16.88,45.19
517,38018.9,0.0500,-16.74,45.02
518,38459.2,0.0500,-16.68,44.86
519,38904.5,0.0500,-16.60,44.73
520,39355.0,0.0500,-16.54,44.57
521,39810.7,0.0500,-16.46,44.37
522,40271.7,0.0500,-16.40,44.26
523,40738.0,0.0500,-16.31,44.04
524,41209.8,0.0500,-16.24,43.87
525,41686.9,0.0500,-16.17,43.71
526,42169.7,0.0500,-16.10,43.48
527,42658.0,0.0500,-16.02,43.33
528,43151.9,0.0500,-15.95,43.10
529,43651.6,0.0500,-15.87,42.95
530,44157.0,0.0500,-15.84,42.72
531,44668.4,0.0500,-15.72,42.61
532,45185.6,0.0500,-15.64,42.37
533,45708.8,0.0500,-15.61,42.15
534,46238.1,0.0500,-15.53,41.84
535,46773.5,0.0500,-15.47,41.85
536,47315.1,0.0500,-15.33,41.55
537,47863.0,0.0500,-15.26,41.41
538,48417.2,0.0500,-15.18,41.18
539,48977.9,0.0500,-15.09,40.99
540,49545.0,0.0500,-15.03,40.76
541,50118.7,0.0500,-14.94,40.40
542,50699.1,0.0500,-14.85,40.26
543,51286.1,0.0500,-14.78,40.08
544,51880.0,0.0500,-14.69,39.76
545,52480.7,0.0500,-14.63,39.52
546,53088.4,0.0500,-14.53,39.32
547,53703.2,0.0500,-14.51,39.03
548,54325.0,0.0500,-14.40,38.70
549,54954.1,0.0500,-14.33,38.45
550,55590.4,0.0500,-14.24,38.20
551,56234.1,0.0500,-14.16,37.92
552,56885.3,0.0500,-14.06,37.61
553,57544.0,0.0500,-13.96,37.35
554,58210.3,0.0500,-13.86,36.97
555,58884.4,0.0500,-13.77,36.57
556,59566.2,0.0500,-13.69,36.35
557,60256.0,0.0500,-13.62,35.92
558,60953.7,0.0500,-13.54,35.59
559,61659.5,0.0500,-13.43,35.28
560,62373.5,0.0500,-13.37,34.64
561,63095.7,0.0500,-13.26,34.56
562,63826.3,0.0500,-13.17,34.16
563,64565.4,0.0500,-13.10,33.82
564,65313.1,0.0500,-13.02,33.40
565,66069.3,0.0500,-12.93,33.13
566,66834.4,0.0500,-12.82,32.52
567,67608.3,0.0500,-12.72,32.26
568,68391.2,0.0500,-12.66,31.76
569,69183.1,0.0500,-12.55,31.26
570,69984.2,0.0500,-12.46,30.90
571,70794.6,0.0500,-12.35,30.51
572,71614.3,0.0500,-12.27,29.97
573,72443.6,0.0500,-12.17,29.40
574,73282.5,0.0500,-12.07,28.85
575,74131.0,0.0500,-11.98,28.42
576,74989.4,0.0500,-11.89,27.90
577,75857.8,0.0500,-11.78,27.37
578,76736.1,0.0500,-11.72,26.80
579,77624.7,0.0500,-11.60,26.19
580,78523.6,0.0500,-11.50,25.69
581,79432.8,0.0500,-11.40,25.11
582,80352.6,0.0500,-11.30,24.32
583,81283.1,0.0500,-11.20,23.68
584,82224.3,0.0500,-11.10,23.07
585,83176.4,0.0500,-11.03,22.30
586,84139.5,0.0500,-10.92,21.73
587,85113.8,0.0500,-10.85,20.95
588,86099.4,0.0500,-10.73,20.23
589,87096.4,0.0500,-10.65,19.46
590,88104.9,0.0500,-10.57,18.73
591,89125.1,0.0500,-10.46,17.85
592,90157.1,0.0500,-10.38,17.18
593,91201.1,0.0500,-10.29,16.29
594,92257.1,0.0500,-10.21,15.53
595,93325.4,0.0500,-10.10,14.61
596,94406.1,0.0500,-10.03,13.67
597,95499.3,0.0500,-9.95,12.85
598,96605.1,0.0500,-9.87,11.96
599,97723.7,0.0500,-9.77,10.90
600,98855.3,0.0500,-9.69,9.78
601,100000.0,0.0500,-9.61,8.75
602,101157.9,0.0500,-9.56,7.78
603,102329.3,0.0500,-9.48,6.60
604,103514.2,0.0500,-9.40,5.68
605,104712.9,0.0500,-9.36,4.83
606,105925.4,0.0500,-9.26,3.51
607,107151.9,0.0500,-9.21,2.23
608,108392.7,0.0500,-9.16,1.23
609,109647.8,0.0500,-9.09,-0.10
610,110917.5,0.0500,-9.01,-0.85
611,112201.8,0.0500,-9.02,-2.52
612,113501.1,0.0500,-8.97,-3.67
613,114815.4,0.0500,-8.91,-5.14
614,116144.9,0.0500,-8.90,-6.21
615,117489.8,0.0500,-8.89,-7.64
616,118850.2,0.0500,-8.86,-8.84
617,120226.4,0.0500,-8.81,-10.41
618,121618.6,0.0500,-8.87,-11.19
619,123026.9,0.0500,-8.80,-12.93
620,124451.5,0.0500,-8.84,-14.52
621,125892.5,0.0500,-8.79,-15.36
622,127350.3,0.0500,-8.80,-16.94
623,128825.0,0.0500,-8.80,-18.00
624,130316.7,0.0500,-8.85,-19.39
625,131825.7,0.0500,-8.84,-20.94
626,133352.1,0.0500,-8.92,-22.47
627,134896.3,0.0500,-8.94,-24.16
628,136458.3,0.0500,-9.02,-25.09
629,138038.4,0.0500,-9.03,-26.26
630,139636.8,0.0500,-9.09,-27.75
631,141253.8,0.0500,-9.19,-29.60
632,142889.4,0.0500,-9.29,-30.51
633,144544.0,0.0500,-9.24,-31.56
634,146217.7,0.0500,-9.22,-33.28
635,147910.8,0.0500,-9.45,-34.55
636,149623.6,0.0500,-9.52,-35.48
637,151356.1,0.0500,-9.56,-35.93
638,153108.7,0.0500,-9.66,-37.95
639,154881.7,0.0500,-9.74,-39.33
640,156675.1,0.0500,-9.83,-40.31
641,158489.3,0.0500,-9.95,-41.34
642,160324.5,0.0500,-10.18,-39.59
643,162181.0,0.0500,-10.27,-44.04
644,164059.0,0.0500,-10.29,-44.88
