#, Frequency (Hz), Amplitude (Vpp), Gain (dB), Phase (°)
1,100.0,0.0500,-68.45,1.40
2,101.2,0.0500,-68.21,6.56
3,102.3,0.0500,-67.10,-5.62
4,103.5,0.0500,-67.13,11.58
5,104.7,0.0500,-65.29,-5.87
6,105.9,0.0500,-66.28,4.34
7,107.2,0.0500,-66.75,12.60
8,108.4,0.0500,-68.61,1.79
9,109.6,0.0500,-66.81,-1.35
10,110.9,0.0500,-66.90,1.71
11,112.2,0.0500,-66.82,-1.67
12,113.5,0.0500,-65.17,-1.18
13,114.8,0.0500,-64.36,-7.00
14,116.1,0.0500,-66.51,12.35
15,117.5,0.0500,-66.21,3.18
16,118.9,0.0500,-67.61,4.89
17,120.2,0.0500,-66.69,4.20
18,121.6,0.0500,-67.40,7.22
19,123.0,0.0500,-66.90,11.00
20,124.5,0.0500,-65.86,-1.36
21,125.9,0.0500,-66.68,0.48
22,127.4,0.0500,-67.24,4.07
23,128.8,0.0500,-67.71,5.98
24,130.3,0.0500,-68.80,-8.02
25,131.8,0.0500,-67.68,0.39
26,133.4,0.0500,-68.90,16.54
27,134.9,0.0500,-67.27,3.83
28,136.5,0.0500,-68.56,1.91
29,138.0,0.0500,-66.31,2.58
30,139.6,0.0500,-66.66,6.77
31,141.3,0.0500,-67.43,11.50
32,142.9,0.0500,-67.20,9.36
33,144.5,0.0500,-67.10,10.02
34,146.2,0.0500,-67.36,10.08
35,147.9,0.0500,-66.74,6.90
36,149.6,0.0500,-66.82,-6.48
37,151.4,0.0500,-65.39,0.40
38,153.1,0.0500,-66.40,5.21
39,154.9,0.0500,-65.58,0.40
40,156.7,0.0500,-66.56,6.93
41,158.5,0.0500,-65.32,2.12
42,160.3,0.0500,-68.54,1.31
43,162.2,0.0500,-65.94,1.60
44,164.1,0.0500,-65.94,2.75
45,166.0,0.0500,-66.55,6.47
46,167.9,0.0500,-66.77,12.09
47,169.8,0.0500,-65.92,-1.94
48,171.8,0.0500,-67.06,5.04
49,173.8,0.0500,-66.11,12.25
50,175.8,0.0500,-67.52,8.71
51,177.8,0.0500,-66.92,6.22
52,179.9,0.0500,-67.36,4.65
53,182.0,0.0500,-66.63,11.35
54,184.1,0.0500,-65.99,4.29
55,186.2,0.0500,-66.82,16.80
56,188.4,0.0500,-68.40,2.75
57,190.5,0.0500,-66.20,3.57
58,192.8,0.0500,-66.28,4.04
59,195.0,0.0500,-65.43,5.93
60,197.2,0.0500,-66.32,4.12
61,199.5,0.0500,-66.81,9.75
62,201.8,0.0500,-66.14,8.75
63,204.2,0.0500,-66.98,7.07
64,206.5,0.0500,-66.63,-0.78
65,208.9,0.0500,-65.60,5.30
66,211.3,0.0500,-66.35,8.78
67,213.8,0.0500,-66.39,-0.20
68,216.3,0.0500,-67.71,2.90
69,218.8,0.0500,-67.16,3.29
70,221.3,0.0500,-66.12,-0.91
71,223.9,0.0500,-66.39,7.10
72,226.5,0.0500,-66.64,3.63
73,229.1,0.0500,-65.76,0.67
74,231.7,0.0500,-67.67,12.24
75,234.4,0.0500,-65.36,1.01
76,237.1,0.0500,-66.81,10.35
77,239.9,0.0500,-66.24,5.60
78,242.7,0.0500,-65.56,3.38
79,245.5,0.0500,-67.03,7.45
80,248.3,0.0500,-65.53,1.72
81,251.2,0.0500,-66.92,8.01
82,254.1,0.0500,-65.24,6.93
83,257.0,0.0500,-65.53,4.82
84,260.0,0.0500,-66.95,0.23
85,263.0,0.0500,-65.25,2.85
86,266.1,0.0500,-67.57,15.87
87,269.2,0.0500,-65.98,8.93
88,272.3,0.0500,-67.51,2.21
89,275.4,0.0500,-66.97,2.24
90,278.6,0.0500,-66.17,12.39
91,281.8,0.0500,-65.84,3.96
92,285.1,0.0500,-65.09,7.58
93,288.4,0.0500,-66.71,12.01
94,291.7,0.0500,-66.60,9.57
95,295.1,0.0500,-65.76,5.88
96,298.5,0.0500,-64.67,8.41
97,302.0,0.0500,-65.69,8.11
98,305.5,0.0500,-67.60,9.94
99,309.0,0.0500,-66.33,5.16
100,312.6,0.0500,-67.31,7.72
101,316.2,0.0500,-65.82,6.00
102,319.9,0.0500,-65.79,10.92
103,323.6,0.0500,-66.28,7.75
104,327.3,0.0500,-66.94,3.15
105,331.1,0.0500,-66.44,3.57
106,335.0,0.0500,-66.02,13.90
107,338.8,0.0500,-66.98,12.73
108,342.8,0.0500,-66.15,13.11
109,346.7,0.0500,-66.50,9.73
110,350.8,0.0500,-66.15,7.90
111,354.8,0.0500,-65.73,9.24
112,358.9,0.0500,-66.85,10.92
113,363.1,0.0500,-67.30,4.47
114,367.3,0.0500,-66.19,12.86
115,371.5,0.0500,-65.55,0.23
116,375.8,0.0500,-67.78,12.53
117,380.2,0.0500,-65.86,15.38
118,384.6,0.0500,-66.74,13.77
119,389.0,0.0500,-65.38,16.70
120,393.6,0.0500,-67.35,17.75
121,398.1,0.0500,-66.70,9.85
122,402.7,0.0500,-66.87,14.52
123,407.4,0.0500,-66.48,7.64
124,412.1,0.0500,-66.38,13.34
125,416.9,0.0500,-66.29,9.31
126,421.7,0.0500,-65.85,21.75
127,426.6,0.0500,-66.88,15.12
128,431.5,0.0500,-65.13,11.03
129,436.5,0.0500,-66.58,18.89
130,441.6,0.0500,-66.50,16.90
131,446.7,0.0500,-65.94,12.01
132,451.9,0.0500,-66.10,9.83
133,457.1,0.0500,-66.82,10.73
134,462.4,0.0500,-65.37,16.04
135,467.7,0.0500,-65.95,16.66
136,473.2,0.0500,-65.97,10.28
137,478.6,0.0500,-66.39,18.98
138,484.2,0.0500,-65.60,5.53
139,489.8,0.0500,-65.68,9.25
140,495.5,0.0500,-66.84,16.80
141,501.2,0.0500,-65.13,13.36
142,507.0,0.0500,-65.85,13.71
143,512.9,0.0500,-65.71,3.55
144,518.8,0.0500,-66.93,13.65
145,524.8,0.0500,-66.96,20.82
146,530.9,0.0500,-66.34,20.61
147,537.0,0.0500,-65.96,14.65
148,543.3,0.0500,-65.67,20.75
149,549.5,0.0500,-66.20,6.07
150,555.9,0.0500,-66.90,9.19
151,562.3,0.0500,-66.38,17.46
152,568.9,0.0500,-66.86,13.91
153,575.4,0.0500,-66.67,19.59
154,582.1,0.0500,-66.93,17.54
155,588.8,0.0500,-66.33,18.07
156,595.7,0.0500,-64.91,10.82
157,602.6,0.0500,-64.81,21.95
158,609.5,0.0500,-65.27,11.55
159,616.6,0.0500,-63.97,17.38
160,623.7,0.0500,-65.99,11.83
161,631.0,0.0500,-66.04,19.22
162,638.3,0.0500,-65.10,15.65
163,645.7,0.0500,-65.32,18.44
164,653.1,0.0500,-65.50,19.10
165,660.7,0.0500,-65.73,15.44
166,668.3,0.0500,-67.07,20.14
167,676.1,0.0500,-64.77,28.65
168,683.9,0.0500,-63.84,22.47
169,691.8,0.0500,-65.39,9.31
170,699.8,0.0500,-63.57,22.39
171,707.9,0.0500,-66.17,26.44
172,716.1,0.0500,-62.92,12.36
173,724.4,0.0500,-65.57,19.77
174,732.8,0.0500,-63.56,18.87
175,741.3,0.0500,-64.59,19.34
176,749.9,0.0500,-64.33,11.90
177,758.6,0.0500,-65.60,42.82
178,767.4,0.0500,-64.30,13.21
179,776.2,0.0500,-66.09,19.38
180,785.2,0.0500,-65.37,19.13
181,794.3,0.0500,-65.90,7.98
182,803.5,0.0500,-66.19,17.82
183,812.8,0.0500,-65.23,17.10
184,822.2,0.0500,-65.26,24.29
185,831.8,0.0500,-64.49,16.59
186,841.4,0.0500,-65.78,20.85
187,851.1,0.0500,-65.78,18.29
188,861.0,0.0500,-65.36,17.28
189,871.0,0.0500,-65.30,21.32
190,881.0,0.0500,-65.85,16.96
191,891.3,0.0500,-64.97,22.58
192,901.6,0.0500,-64.88,18.54
193,912.0,0.0500,-66.19,14.38
194,922.6,0.0500,-65.24,31.00
195,933.3,0.0500,-63.22,23.31
196,944.1,0.0500,-64.38,19.51
197,955.0,0.0500,-65.50,16.06
198,966.1,0.0500,-65.05,15.09
199,977.2,0.0500,-65.04,18.69
200,988.6,0.0500,-67.88,29.40
201,1000.0,0.0500,-68.45,39.09
202,1011.6,0.0500,-65.64,-0.48
203,1023.3,0.0500,-66.06,-7.99
204,1035.1,0.0500,-66.00,24.41
205,1047.1,0.0500,-64.27,32.96
206,1059.3,0.0500,-64.63,36.01
207,1071.5,0.0500,-62.77,19.45
208,1083.9,0.0500,-64.01,23.41
209,1096.5,0.0500,-67.91,34.78
210,1109.2,0.0500,-63.93,18.92
211,1122.0,0.0500,-64.49,58.78
212,1135.0,0.0500,-65.67,21.90
213,1148.2,0.0500,-63.45,32.55
214,1161.4,0.0500,-64.70,27.07
215,1174.9,0.0500,-66.37,23.04
216,1188.5,0.0500,-63.31,35.39
217,1202.3,0.0500,-64.10,22.49
218,1216.2,0.0500,-62.87,34.45
219,1230.3,0.0500,-63.66,28.52
220,1244.5,0.0500,-65.79,33.84
221,1258.9,0.0500,-64.82,32.86
222,1273.5,0.0500,-65.10,33.07
223,1288.2,0.0500,-64.22,26.94
224,1303.2,0.0500,-64.56,28.13
225,1318.3,0.0500,-64.44,20.62
226,1333.5,0.0500,-66.29,31.21
227,1349.0,0.0500,-66.02,21.72
228,1364.6,0.0500,-62.82,35.26
229,1380.4,0.0500,-64.61,15.31
230,1396.4,0.0500,-64.06,23.93
231,1412.5,0.0500,-64.76,26.11
232,1428.9,0.0500,-64.96,40.67
233,1445.4,0.0500,-64.30,29.11
234,1462.2,0.0500,-62.68,41.29
235,1479.1,0.0500,-62.68,37.28
236,1496.2,0.0500,-63.11,42.93
237,1513.6,0.0500,-64.34,32.40
238,1531.1,0.0500,-65.29,55.65
239,1548.8,0.0500,-63.07,18.84
240,1566.8,0.0500,-63.43,32.28
241,1584.9,0.0500,-62.70,56.63
242,1603.2,0.0500,-64.76,27.64
243,1621.8,0.0500,-63.67,25.80
244,1640.6,0.0500,-62.08,12.47
245,1659.6,0.0500,-66.20,-6.96
246,1678.8,0.0500,-56.08,72.73
247,1698.2,0.0500,-64.77,13.19
248,1717.9,0.0500,-65.15,24.72
249,1737.8,0.0500,-64.87,30.06
250,1757.9,0.0500,-63.49,44.71
251,1778.3,0.0500,-65.62,18.99
252,1798.9,0.0500,-59.77,38.30
253,1819.7,0.0500,-65.78,-4.12
254,1840.8,0.0500,-66.81,58.04
255,1862.1,0.0500,-62.17,22.01
256,1883.6,0.0500,-66.40,21.66
257,1905.5,0.0500,-59.33,40.99
258,1927.5,0.0500,-62.88,37.50
259,1949.8,0.0500,-63.59,16.81
260,1972.4,0.0500,-67.18,46.26
261,1995.3,0.0500,-61.93,10.82
262,2018.4,0.0500,-62.82,45.87
263,2041.7,0.0500,-63.44,30.40
264,2065.4,0.0500,-62.96,29.54
265,2089.3,0.0500,-61.93,34.35
266,2113.5,0.0500,-63.87,40.37
267,2138.0,0.0500,-62.56,34.05
268,2162.7,0.0500,-62.95,38.63
269,2187.8,0.0500,-62.27,38.15
270,2213.1,0.0500,-62.98,36.16
271,2238.7,0.0500,-63.03,33.22
272,2264.6,0.0500,-62.25,35.33
273,2290.9,0.0500,-64.10,35.32
274,2317.4,0.0500,-63.16,35.53
275,2344.2,0.0500,-62.52,29.93
276,2371.4,0.0500,-62.60,44.53
277,2398.8,0.0500,-61.37,38.49
278,2426.6,0.0500,-64.61,52.20
279,2454.7,0.0500,-60.59,27.42
280,2483.1,0.0500,-61.70,48.05
281,2511.9,0.0500,-62.05,37.65
282,2541.0,0.0500,-61.72,51.60
283,2570.4,0.0500,-61.44,34.59
284,2600.2,0.0500,-61.71,40.45
285,2630.3,0.0500,-60.89,39.52
286,2660.7,0.0500,-62.32,49.60
287,2691.5,0.0500,-60.36,41.22
288,2722.7,0.0500,-61.59,38.64
289,2754.2,0.0500,-62.52,29.48
290,2786.1,0.0500,-62.68,41.19
291,2818.4,0.0500,-60.04,34.87
292,2851.0,0.0500,-62.08,46.82
293,2884.0,0.0500,-60.34,42.88
294,2917.4,0.0500,-60.58,37.98
295,2951.2,0.0500,-62.77,39.98
296,2985.4,0.0500,-60.15,48.05
297,3020.0,0.0500,-60.89,53.67
298,3054.9,0.0500,-61.69,39.00
299,3090.3,0.0500,-59.81,41.34
300,3126.1,0.0500,-60.96,43.76
301,3162.3,0.0500,-61.37,42.06
302,3198.9,0.0500,-60.61,47.50
303,3235.9,0.0500,-62.03,41.40
304,3273.4,0.0500,-60.87,41.00
305,3311.3,0.0500,-61.75,42.58
306,3349.7,0.0500,-60.66,45.72
307,3388.4,0.0500,-60.51,42.68
308,3427.7,0.0500,-60.77,43.11
309,3467.4,0.0500,-61.06,32.91
310,3507.5,0.0500,-60.24,42.91
311,3548.1,0.0500,-60.12,32.80
312,3589.2,0.0500,-62.01,55.78
313,3630.8,0.0500,-61.10,36.58
314,3672.8,0.0500,-60.42,32.46
315,3715.4,0.0500,-61.09,47.36
316,3758.4,0.0500,-66.71,50.54
317,3801.9,0.0500,-59.39,51.53
318,3845.9,0.0500,-60.86,51.91
319,3890.5,0.0500,-60.88,39.32
320,3935.5,0.0500,-59.37,45.51
321,3981.1,0.0500,-59.99,49.74
322,4027.2,0.0500,-60.31,48.20
323,4073.8,0.0500,-59.17,42.69
324,4121.0,0.0500,-60.20,49.73
325,4168.7,0.0500,-59.59,48.01
326,4217.0,0.0500,-59.60,46.48
327,4265.8,0.0500,-59.52,46.22
328,4315.2,0.0500,-59.34,46.72
329,4365.2,0.0500,-60.07,44.64
330,4415.7,0.0500,-60.06,42.38
331,4466.8,0.0500,-59.99,41.46
332,4518.6,0.0500,-59.40,49.47
333,4570.9,0.0500,-59.08,47.91
334,4623.8,0.0500,-58.57,43.30
335,4677.4,0.0500,-57.63,35.39
336,4731.5,0.0500,-59.33,46.89
337,4786.3,0.0500,-58.68,43.94
338,4841.7,0.0500,-59.78,50.40
339,4897.8,0.0500,-59.23,49.02
340,4954.5,0.0500,-57.99,46.93
341,5011.9,0.0500,-59.14,45.72
342,5069.9,0.0500,-58.37,49.68
343,5128.6,0.0500,-57.78,48.56
344,5188.0,0.0500,-58.46,46.19
345,5248.1,0.0500,-58.81,48.12
346,5308.8,0.0500,-58.34,49.84
347,5370.3,0.0500,-58.45,52.61
348,5432.5,0.0500,-59.14,47.32
349,5495.4,0.0500,-58.21,47.64
350,5559.0,0.0500,-57.20,55.74
351,5623.4,0.0500,-58.44,46.25
352,5688.5,0.0500,-58.63,45.70
353,5754.4,0.0500,-58.60,44.55
354,5821.0,0.0500,-58.64,48.78
355,5888.4,0.0500,-57.52,48.53
356,5956.6,0.0500,-58.48,46.09
357,6025.6,0.0500,-57.41,47.43
358,6095.4,0.0500,-57.45,44.89
359,6166.0,0.0500,-58.25,50.80
360,6237.3,0.0500,-58.25,48.07
361,6309.6,0.0500,-58.78,52.00
362,6382.6,0.0500,-57.70,48.85
363,6456.5,0.0500,-57.63,51.38
364,6531.3,0.0500,-57.76,48.06
365,6606.9,0.0500,-57.38,51.42
366,6683.4,0.0500,-57.98,52.65
367,6760.8,0.0500,-56.87,51.38
368,6839.1,0.0500,-56.71,54.41
369,6918.3,0.0500,-58.66,45.16
370,6998.4,0.0500,-59.04,28.41
371,7079.5,0.0500,-57.15,50.90
372,7161.4,0.0500,-56.72,51.17
373,7244.4,0.0500,-57.09,48.39
374,7328.2,0.0500,-57.27,47.81
375,7413.1,0.0500,-58.50,45.86
376,7498.9,0.0500,-57.15,41.34
377,7585.8,0.0500,-56.91,51.60
378,7673.6,0.0500,-57.17,50.22
379,7762.5,0.0500,-56.50,52.69
380,7852.4,0.0500,-56.03,53.12
381,7943.3,0.0500,-55.92,57.94
382,8035.3,0.0500,-55.59,46.82
383,8128.3,0.0500,-56.16,51.65
384,8222.4,0.0500,-56.58,49.62
385,8317.6,0.0500,-56.23,51.65
386,8414.0,0.0500,-56.24,48.19
387,8511.4,0.0500,-56.39,49.41
388,8609.9,0.0500,-56.55,51.25
389,8709.6,0.0500,-56.37,54.65
390,8810.5,0.0500,-56.01,51.58
391,8912.5,0.0500,-55.79,52.56
392,9015.7,0.0500,-56.16,50.61
393,9120.1,0.0500,-55.56,52.76
394,9225.7,0.0500,-56.60,54.99
395,9332.5,0.0500,-56.06,54.42
396,9440.6,0.0500,-56.19,52.45
397,9549.9,0.0500,-55.84,50.29
398,9660.5,0.0500,-55.60,53.60
399,9772.4,0.0500,-55.47,54.41
400,9885.5,0.0500,-55.80,53.19
401,10000.0,0.0500,-55.37,53.75
402,10115.8,0.0500,-55.29,53.17
403,10232.9,0.0500,-55.05,55.06
404,10351.4,0.0500,-55.35,54.17
405,10471.3,0.0500,-54.87,54.48
406,10592.5,0.0500,-55.19,52.18
407,10715.2,0.0500,-55.02,48.91
408,10839.3,0.0500,-55.51,54.83
409,10964.8,0.0500,-55.06,53.84
410,11091.7,0.0500,-54.67,53.16
411,11220.2,0.0500,-54.84,54.15
412,11350.1,0.0500,-54.55,55.07
413,11481.5,0.0500,-54.78,53.90
414,11614.5,0.0500,-54.81,56.47
415,11749.0,0.0500,-55.11,57.13
416,11885.0,0.0500,-54.51,55.02
417,12022.6,0.0500,-54.72,53.21
418,12161.9,0.0500,-54.68,58.79
419,12302.7,0.0500,-54.93,50.55
420,12445.1,0.0500,-54.65,55.26
421,12589.3,0.0500,-53.69,59.00
422,12735.0,0.0500,-54.30,53.98
423,12882.5,0.0500,-54.30,54.25
424,13031.7,0.0500,-54.40,56.35
425,13182.6,0.0500,-53.83,54.92
426,13335.2,0.0500,-54.32,54.52
427,13489.6,0.0500,-54.39,54.73
428,13645.8,0.0500,-54.02,55.52
429,13803.8,0.0500,-53.26,55.58
430,13963.7,0.0500,-53.62,57.52
431,14125.4,0.0500,-53.89,56.05
432,14288.9,0.0500,-53.93,50.70
433,14454.4,0.0500,-53.31,55.04
434,14621.8,0.0500,-53.73,56.61
435,14791.1,0.0500,-53.52,56.99
436,14962.4,0.0500,-53.96,55.29
437,15135.6,0.0500,-52.62,57.80
438,15310.9,0.0500,-53.51,59.31
439,15488.2,0.0500,-53.25,58.95
440,15667.5,0.0500,-52.91,56.55
441,15848.9,0.0500,-53.16,58.71
442,16032.5,0.0500,-53.43,57.85
443,16218.1,0.0500,-53.11,57.23
444,16405.9,0.0500,-52.41,61.42
445,16595.9,0.0500,-52.74,56.99
446,16788.0,0.0500,-52.88,58.45
447,16982.4,0.0500,-52.71,56.72
448,17179.1,0.0500,-52.36,58.03
449,17378.0,0.0500,-52.67,58.33
450,17579.2,0.0500,-52.37,59.02
451,17782.8,0.0500,-52.63,59.22
452,17988.7,0.0500,-52.60,56.01
453,18197.0,0.0500,-52.42,57.74
454,18407.7,0.0500,-52.58,57.97
455,18620.9,0.0500,-52.26,60.36
456,18836.5,0.0500,-52.03,59.03
457,19054.6,0.0500,-52.04,58.65
458,19275.2,0.0500,-52.08,60.85
459,19498.4,0.0500,-51.87,58.32
460,19724.2,0.0500,-51.83,60.25
461,19952.6,0.0500,-51.53,58.48
462,20183.7,0.0500,-51.61,58.68
463,20417.4,0.0500,-51.62,59.48
464,20653.8,0.0500,-51.65,59.60
465,20893.0,0.0500,-51.61,61.41
466,21134.9,0.0500,-51.32,59.69
467,21379.6,0.0500,-51.06,61.03
468,21627.2,0.0500,-51.07,61.29
469,21877.6,0.0500,-51.46,60.27
470,22130.9,0.0500,-51.02,60.78
471,22387.2,0.0500,-51.17,60.75
472,22646.4,0.0500,-51.03,61.89
473,22908.7,0.0500,-50.81,62.05
474,23173.9,0.0500,-51.02,62.19
475,23442.3,0.0500,-50.87,61.43
476,23713.7,0.0500,-50.67,61.90
477,23988.3,0.0500,-50.60,61.72
478,24266.1,0.0500,-50.53,61.49
479,24547.1,0.0500,-50.52,62.44
480,24831.3,0.0500,-50.40,63.76
481,25118.9,0.0500,-50.20,63.59
482,25409.7,0.0500,-50.43,63.23
483,25704.0,0.0500,-50.23,63.86
484,26001.6,0.0500,-50.08,61.80
485,26302.7,0.0500,-50.16,63.79
486,26607.3,0.0500,-50.05,63.90
487,26915.3,0.0500,-49.70,60.76
488,27227.0,0.0500,-49.86,62.88
489,27542.3,0.0500,-49.99,62.82
490,27861.2,0.0500,-49.58,62.58
491,28183.8,0.0500,-49.67,63.20
492,28510.2,0.0500,-49.49,62.47
493,28840.3,0.0500,-49.48,63.25
494,29174.3,0.0500,-49.51,63.12
495,29512.1,0.0500,-49.40,64.76
496,29853.8,0.0500,-49.31,64.78
497,30199.5,0.0500,-49.31,63.41
498,30549.2,0.0500,-48.94,63.06
499,30903.0,0.0500,-49.06,64.33
500,31260.8,0.0500,-48.97,64.30
501,31622.8,0.0500,-48.95,67.65
502,31989.0,0.0500,-48.81,64.25
503,32359.4,0.0500,-48.86,66.70
504,32734.1,0.0500,-48.56,66.62
505,33113.1,0.0500,-48.53,66.51
506,33496.5,0.0500,-48.35,64.64
507,33884.4,0.0500,-48.54,64.79
508,34276.8,0.0500,-48.36,64.68
509,34673.7,0.0500,-48.38,65.19
510,35075.2,0.0500,-48.29,64.20
511,35481.3,0.0500,-48.15,66.69
512,35892.2,0.0500,-48.22,66.02
513,36307.8,0.0500,-47.90,66.22
514,36728.2,0.0500,-47.94,66.15
515,37153.5,0.0500,-47.88,66.29
516,37583.7,0.0500,-47.89,66.71
517,38018.9,0.0500,-47.63,65.87
518,38459.2,0.0500,-47.55,67.09
519,38904.5,0.0500,-47.70,66.47
520,39355.0,0.0500,-47.44,66.78
521,39810.7,0.0500,-47.32,68.07
522,40271.7,0.0500,-47.41,65.89
523,40738.0,0.0500,-47.08,67.18
524,41209.8,0.0500,-47.03,67.87
525,41686.9,0.0500,-47.08,66.84
526,42169.7,0.0500,-47.02,66.95
527,42658.0,0.0500,-46.85,68.20
528,43151.9,0.0500,-46.80,68.96
529,43651.6,0.0500,-46.61,68.21
530,44157.0,0.0500,-46.62,68.05
531,44668.4,0.0500,-46.66,68.20
532,45185.6,0.0500,-46.34,68.32
533,45708.8,0.0500,-46.34,67.68
534,46238.1,0.0500,-46.33,68.84
535,46773.5,0.0500,-46.15,68.30
536,47315.1,0.0500,-46.07,68.61
537,47863.0,0.0500,-46.02,69.54
538,48417.2,0.0500,-46.08,68.53
539,48977.9,0.0500,-45.77,69.33
540,49545.0,0.0500,-45.48,70.71
541,50118.7,0.0500,-45.42,69.65
542,50699.1,0.0500,-45.38,67.79
543,51286.1,0.0500,-45.85,68.83
544,51880.0,0.0500,-45.39,68.66
545,52480.7,0.0500,-45.18,67.77
546,53088.4,0.0500,-45.21,69.28
547,53703.2,0.0500,-45.01,70.45
548,54325.0,0.0500,-45.26,69.87
549,54954.1,0.0500,-44.88,69.04
550,55590.4,0.0500,-44.89,69.91
551,56234.1,0.0500,-44.80,69.85
552,56885.3,0.0500,-44.62,69.34
553,57544.0,0.0500,-44.52,68.64
554,58210.3,0.0500,-44.45,66.87
555,58884.4,0.0500,-44.64,69.12
556,59566.2,0.0500,-44.45,68.47
557,60256.0,0.0500,-44.38,68.74
558,60953.7,0.0500,-44.14,70.23
559,61659.5,0.0500,-44.24,68.43
560,62373.5,0.0500,-43.91,68.03
561,63095.7,0.0500,-44.02,70.18
562,63826.3,0.0500,-43.58,68.99
563,64565.4,0.0500,-43.73,70.48
564,65313.1,0.0500,-43.80,68.97
565,66069.3,0.0500,-43.84,68.61
566,66834.4,0.0500,-43.50,69.15
567,67608.3,0.0500,-43.85,69.81
568,68391.2,0.0500,-43.53,70.06
569,69183.1,0.0500,-43.52,67.54
570,69984.2,0.0500,-42.90,68.42
571,70794.6,0.0500,-42.87,69.87
572,71614.3,0.0500,-43.06,70.12
573,72443.6,0.0500,-42.91,69.65
574,73282.5,0.0500,-43.08,70.20
575,74131.0,0.0500,-42.74,70.20
576,74989.4,0.0500,-42.62,69.00
577,75857.8,0.0500,-42.71,70.15
578,76736.1,0.0500,-42.54,70.36
579,77624.7,0.0500,-42.53,70.32
580,78523.6,0.0500,-42.65,70.72
581,79432.8,0.0500,-42.22,70.39
582,80352.6,0.0500,-41.91,70.71
583,81283.1,0.0500,-42.19,70.04
584,82224.3,0.0500,-42.05,70.31
585,83176.4,0.0500,-42.01,70.55
586,84139.5,0.0500,-41.92,69.09
587,85113.8,0.0500,-41.72,70.54
588,86099.4,0.0500,-41.47,70.18
589,87096.4,0.0500,-41.67,69.80
590,88104.9,0.0500,-41.46,70.24
591,89125.1,0.0500,-41.34,70.47
592,90157.1,0.0500,-41.31,68.86
593,91201.1,0.0500,-41.29,70.80
594,92257.1,0.0500,-41.28,69.95
595,93325.4,0.0500,-40.99,70.35
596,94406.1,0.0500,-41.00,70.06
597,95499.3,0.0500,-40.72,70.32
598,96605.1,0.0500,-40.71,70.37
599,97723.7,0.0500,-40.74,70.80
600,98855.3,0.0500,-40.72,71.47
601,100000.0,0.0500,-40.40,71.39
602,101157.9,0.0500,-40.65,71.72
603,102329.3,0.0500,-40.41,71.64
604,103514.2,0.0500,-40.47,71.83
605,104712.9,0.0500,-40.32,69.57
606,105925.4,0.0500,-39.95,70.03
607,107151.9,0.0500,-40.16,71.83
608,108392.7,0.0500,-39.91,70.60
609,109647.8,0.0500,-39.96,71.17
610,110917.5,0.0500,-39.55,71.18
611,112201.8,0.0500,-39.52,71.85
612,113501.1,0.0500,-39.48,71.50
613,114815.4,0.0500,-39.50,71.60
614,116144.9,0.0500,-39.27,71.75
615,117489.8,0.0500,-39.44,72.25
616,118850.2,0.0500,-39.12,71.63
617,120226.4,0.0500,-39.05,71.02
618,121618.6,0.0500,-39.01,71.49
619,123026.9,0.0500,-38.92,72.01
620,124451.5,0.0500,-39.00,70.44
621,125892.5,0.0500,-38.85,72.69
622,127350.3,0.0500,-38.77,71.13
623,128825.0,0.0500,-38.35,71.20
624,130316.7,0.0500,-38.49,71.04
625,131825.7,0.0500,-38.42,71.55
626,133352.1,0.0500,-37.87,71.51
627,134896.3,0.0500,-38.31,71.61
628,136458.3,0.0500,-38.06,71.46
629,138038.4,0.0500,-37.82,71.71
630,139636.8,0.0500,-38.23,72.12
631,141253.8,0.0500,-37.71,71.95
632,142889.4,0.0500,-37.57,69.68
633,144544.0,0.0500,-37.64,72.05
634,146217.7,0.0500,-37.40,71.33
635,147910.8,0.0500,-37.47,71.02
636,149623.6,0.0500,-36.88,69.63
637,151356.1,0.0500,-37.22,71.72
638,153108.7,0.0500,-36.64,72.00
639,154881.7,0.0500,-36.97,71.05
640,156675.1,0.0500,-37.60,59.05
641,158489.3,0.0500,-36.61,76.67
642,160324.5,0.0500,-37.08,69.59
643,162181.0,0.0500,-36.65,72.87
644,164059.0,0.0500,-35.79,70.85
645,165958.7,0.0500,-36.27,66.05
646,167880.4,0.0500,-36.11,74.34
