#, Frequency (Hz), Amplitude (Vpp), Gain (dB), Phase (°)
1,100.0,0.0500,-66.05,3.34
2,101.2,0.0500,-66.34,-5.06
3,102.3,0.0500,-65.74,-1.82
4,103.5,0.0500,-64.92,-7.22
5,104.7,0.0500,-66.23,-5.26
6,105.9,0.0500,-64.19,8.82
7,107.2,0.0500,-67.31,-2.93
8,108.4,0.0500,-65.02,-9.15
9,109.6,0.0500,-63.92,3.20
10,110.9,0.0500,-65.03,2.29
11,112.2,0.0500,-64.30,-2.78
12,113.5,0.0500,-66.66,10.86
13,114.8,0.0500,-65.11,3.90
14,116.1,0.0500,-66.41,-3.41
15,117.5,0.0500,-64.80,-1.48
16,118.9,0.0500,-64.82,4.46
17,120.2,0.0500,-65.35,-2.29
18,121.6,0.0500,-66.23,9.40
19,123.0,0.0500,-65.17,3.30
20,124.5,0.0500,-65.20,-2.48
21,125.9,0.0500,-65.50,-1.96
22,127.4,0.0500,-65.92,0.92
23,128.8,0.0500,-65.94,-2.94
24,130.3,0.0500,-66.45,5.91
25,131.8,0.0500,-64.26,3.73
26,133.4,0.0500,-64.96,-3.41
27,134.9,0.0500,-65.52,-2.02
28,136.5,0.0500,-64.54,3.30
29,138.0,0.0500,-64.24,3.85
30,139.6,0.0500,-65.43,5.13
31,141.3,0.0500,-65.17,4.29
32,142.9,0.0500,-65.01,-6.26
33,144.5,0.0500,-67.15,5.18
34,146.2,0.0500,-65.75,1.79
35,147.9,0.0500,-64.83,4.73
36,149.6,0.0500,-64.59,9.46
37,151.4,0.0500,-64.44,0.65
38,153.1,0.0500,-65.61,4.97
39,154.9,0.0500,-65.60,6.19
40,156.7,0.0500,-65.89,3.46
41,158.5,0.0500,-64.52,3.28
42,160.3,0.0500,-63.93,-0.16
43,162.2,0.0500,-64.36,-2.11
44,164.1,0.0500,-65.24,-3.78
45,166.0,0.0500,-64.23,0.50
46,167.9,0.0500,-63.63,-0.57
47,169.8,0.0500,-65.63,5.04
48,171.8,0.0500,-66.10,3.41
49,173.8,0.0500,-64.56,3.06
50,175.8,0.0500,-65.52,2.62
51,177.8,0.0500,-65.29,0.60
52,179.9,0.0500,-65.03,8.53
53,182.0,0.0500,-64.38,11.81
54,184.1,0.0500,-65.39,-3.49
55,186.2,0.0500,-64.96,14.55
56,188.4,0.0500,-64.45,5.29
57,190.5,0.0500,-65.21,3.05
58,192.8,0.0500,-64.79,-3.27
59,195.0,0.0500,-63.45,-3.41
60,197.2,0.0500,-64.42,6.83
61,199.5,0.0500,-65.40,1.10
62,201.8,0.0500,-65.02,3.19
63,204.2,0.0500,-64.54,8.60
64,206.5,0.0500,-65.81,12.21
65,208.9,0.0500,-65.28,1.17
66,211.3,0.0500,-64.74,8.05
67,213.8,0.0500,-65.43,0.74
68,216.3,0.0500,-63.17,6.46
69,218.8,0.0500,-65.60,7.65
70,221.3,0.0500,-63.97,2.25
71,223.9,0.0500,-64.21,7.75
72,226.5,0.0500,-65.02,5.70
73,229.1,0.0500,-64.97,1.94
74,231.7,0.0500,-64.99,6.25
75,234.4,0.0500,-65.91,2.32
76,237.1,0.0500,-64.81,6.19
77,239.9,0.0500,-64.25,4.13
78,242.7,0.0500,-66.86,1.17
79,245.5,0.0500,-64.46,6.70
80,248.3,0.0500,-64.96,5.35
81,251.2,0.0500,-64.26,8.10
82,254.1,0.0500,-64.97,8.06
83,257.0,0.0500,-65.53,7.72
84,260.0,0.0500,-65.39,5.99
85,263.0,0.0500,-65.34,6.89
86,266.1,0.0500,-64.44,6.33
87,269.2,0.0500,-63.70,3.64
88,272.3,0.0500,-64.14,4.01
89,275.4,0.0500,-64.35,9.78
90,278.6,0.0500,-65.33,4.88
91,281.8,0.0500,-64.10,1.56
92,285.1,0.0500,-64.94,6.54
93,288.4,0.0500,-64.80,4.93
94,291.7,0.0500,-64.86,5.75
95,295.1,0.0500,-64.17,9.53
96,298.5,0.0500,-63.69,3.75
97,302.0,0.0500,-65.17,4.50
98,305.5,0.0500,-64.24,7.11
99,309.0,0.0500,-63.79,6.54
100,312.6,0.0500,-65.67,6.84
101,316.2,0.0500,-64.94,3.83
102,319.9,0.0500,-66.01,2.40
103,323.6,0.0500,-64.51,1.09
104,327.3,0.0500,-65.16,6.21
105,331.1,0.0500,-63.86,3.27
106,335.0,0.0500,-63.52,9.01
107,338.8,0.0500,-65.07,6.33
108,342.8,0.0500,-63.28,8.45
109,346.7,0.0500,-65.53,-0.92
110,350.8,0.0500,-64.69,8.39
111,354.8,0.0500,-64.17,3.12
112,358.9,0.0500,-64.92,11.15
113,363.1,0.0500,-64.25,6.86
114,367.3,0.0500,-64.16,7.45
115,371.5,0.0500,-64.62,1.92
116,375.8,0.0500,-65.17,6.10
117,380.2,0.0500,-65.11,5.76
118,384.6,0.0500,-63.17,6.54
119,389.0,0.0500,-65.23,13.66
120,393.6,0.0500,-63.92,6.71
121,398.1,0.0500,-63.81,2.90
122,402.7,0.0500,-64.23,6.60
123,407.4,0.0500,-64.13,9.93
124,412.1,0.0500,-64.00,-0.58
125,416.9,0.0500,-64.29,11.47
126,421.7,0.0500,-64.31,7.15
127,426.6,0.0500,-64.62,5.72
128,431.5,0.0500,-65.26,13.44
129,436.5,0.0500,-65.43,12.46
130,441.6,0.0500,-64.52,10.03
131,446.7,0.0500,-63.67,9.87
132,451.9,0.0500,-65.37,8.67
133,457.1,0.0500,-65.14,11.88
134,462.4,0.0500,-63.71,5.76
135,467.7,0.0500,-64.17,7.72
136,473.2,0.0500,-64.97,10.23
137,478.6,0.0500,-63.63,4.07
138,484.2,0.0500,-63.90,3.39
139,489.8,0.0500,-64.81,11.55
140,495.5,0.0500,-64.45,-1.09
141,501.2,0.0500,-64.65,10.22
142,507.0,0.0500,-65.22,8.65
143,512.9,0.0500,-65.71,17.80
144,518.8,0.0500,-64.31,8.09
145,524.8,0.0500,-64.03,9.98
146,530.9,0.0500,-64.38,4.65
147,537.0,0.0500,-64.42,6.99
148,543.3,0.0500,-64.72,12.93
149,549.5,0.0500,-63.93,11.12
150,555.9,0.0500,-64.96,11.47
151,562.3,0.0500,-63.69,7.72
152,568.9,0.0500,-64.81,10.31
153,575.4,0.0500,-64.18,10.27
154,582.1,0.0500,-63.69,16.12
155,588.8,0.0500,-64.37,16.60
156,595.7,0.0500,-64.52,4.11
157,602.6,0.0500,-64.32,9.89
158,609.5,0.0500,-64.66,12.44
159,616.6,0.0500,-63.31,3.09
160,623.7,0.0500,-63.98,16.76
161,631.0,0.0500,-63.69,7.56
162,638.3,0.0500,-63.71,10.77
163,645.7,0.0500,-65.25,12.34
164,653.1,0.0500,-64.11,16.02
165,660.7,0.0500,-63.62,9.41
166,668.3,0.0500,-64.58,15.09
167,676.1,0.0500,-63.62,9.46
168,683.9,0.0500,-64.19,11.43
169,691.8,0.0500,-64.30,7.19
170,699.8,0.0500,-64.05,14.79
171,707.9,0.0500,-62.62,16.39
172,716.1,0.0500,-64.76,6.89
173,724.4,0.0500,-64.44,17.11
174,732.8,0.0500,-64.05,13.99
175,741.3,0.0500,-64.58,9.13
176,749.9,0.0500,-65.04,17.05
177,758.6,0.0500,-62.54,10.12
178,767.4,0.0500,-64.75,4.65
179,776.2,0.0500,-63.00,10.80
180,785.2,0.0500,-63.78,5.39
181,794.3,0.0500,-63.86,5.63
182,803.5,0.0500,-64.85,19.03
183,812.8,0.0500,-63.53,15.96
184,822.2,0.0500,-63.71,10.44
185,831.8,0.0500,-63.50,10.84
186,841.4,0.0500,-64.27,9.25
187,851.1,0.0500,-63.83,19.02
188,861.0,0.0500,-63.65,11.85
189,871.0,0.0500,-64.47,16.92
190,881.0,0.0500,-62.87,18.99
191,891.3,0.0500,-64.16,14.07
192,901.6,0.0500,-64.05,14.58
193,912.0,0.0500,-64.48,24.92
194,922.6,0.0500,-64.41,14.27
195,933.3,0.0500,-63.91,16.66
196,944.1,0.0500,-64.29,15.16
197,955.0,0.0500,-62.88,25.54
198,966.1,0.0500,-62.71,23.77
199,977.2,0.0500,-64.30,29.66
200,988.6,0.0500,-64.99,16.65
201,1000.0,0.0500,-64.05,15.28
202,1011.6,0.0500,-62.03,10.99
203,1023.3,0.0500,-65.27,12.58
204,1035.1,0.0500,-63.90,16.00
205,1047.1,0.0500,-63.42,18.72
206,1059.3,0.0500,-63.23,26.93
207,1071.5,0.0500,-63.59,13.33
208,1083.9,0.0500,-63.43,19.08
209,1096.5,0.0500,-63.85,22.39
210,1109.2,0.0500,-64.07,17.63
211,1122.0,0.0500,-63.32,18.24
212,1135.0,0.0500,-64.50,19.39
213,1148.2,0.0500,-62.56,20.60
214,1161.4,0.0500,-62.84,17.85
215,1174.9,0.0500,-63.81,18.38
216,1188.5,0.0500,-64.46,22.73
217,1202.3,0.0500,-64.00,18.18
218,1216.2,0.0500,-64.21,23.54
219,1230.3,0.0500,-63.16,30.93
220,1244.5,0.0500,-63.59,22.75
221,1258.9,0.0500,-64.23,18.25
222,1273.5,0.0500,-63.66,19.93
223,1288.2,0.0500,-63.29,26.06
224,1303.2,0.0500,-63.60,21.33
225,1318.3,0.0500,-64.30,21.04
226,1333.5,0.0500,-62.80,19.52
227,1349.0,0.0500,-63.18,24.01
228,1364.6,0.0500,-63.12,18.96
229,1380.4,0.0500,-63.31,22.64
230,1396.4,0.0500,-63.45,22.11
231,1412.5,0.0500,-63.69,24.18
232,1428.9,0.0500,-63.19,11.68
233,1445.4,0.0500,-64.89,23.83
234,1462.2,0.0500,-62.91,20.86
235,1479.1,0.0500,-63.04,20.64
236,1496.2,0.0500,-66.19,29.64
237,1513.6,0.0500,-62.14,25.90
238,1531.1,0.0500,-62.18,23.00
239,1548.8,0.0500,-64.82,1.88
240,1566.8,0.0500,-63.56,28.21
241,1584.9,0.0500,-61.82,20.12
242,1603.2,0.0500,-63.70,14.77
243,1621.8,0.0500,-66.77,11.96
244,1640.6,0.0500,-63.29,10.96
245,1659.6,0.0500,-63.01,33.35
246,1678.8,0.0500,-63.57,25.81
247,1698.2,0.0500,-62.65,34.09
248,1717.9,0.0500,-61.41,22.66
249,1737.8,0.0500,-63.43,23.46
250,1757.9,0.0500,-64.43,33.79
251,1778.3,0.0500,-63.70,27.99
252,1798.9,0.0500,-62.86,12.28
253,1819.7,0.0500,-61.94,34.84
254,1840.8,0.0500,-64.66,17.67
255,1862.1,0.0500,-63.45,31.22
256,1883.6,0.0500,-60.25,34.21
257,1905.5,0.0500,-64.08,35.96
258,1927.5,0.0500,-62.66,34.34
259,1949.8,0.0500,-62.96,12.95
260,1972.4,0.0500,-62.10,24.34
261,1995.3,0.0500,-63.25,24.96
262,2018.4,0.0500,-61.89,27.62
263,2041.7,0.0500,-63.20,25.44
264,2065.4,0.0500,-62.68,30.72
265,2089.3,0.0500,-62.73,31.59
266,2113.5,0.0500,-62.78,30.14
267,2138.0,0.0500,-62.40,34.89
268,2162.7,0.0500,-62.48,33.00
269,2187.8,0.0500,-61.95,33.88
270,2213.1,0.0500,-62.00,26.11
271,2238.7,0.0500,-62.78,33.37
272,2264.6,0.0500,-62.46,34.26
273,2290.9,0.0500,-62.00,34.93
274,2317.4,0.0500,-62.40,29.46
275,2344.2,0.0500,-60.90,24.67
276,2371.4,0.0500,-62.72,26.31
277,2398.8,0.0500,-61.60,29.75
278,2426.6,0.0500,-62.58,32.94
279,2454.7,0.0500,-61.98,35.60
280,2483.1,0.0500,-60.23,26.08
281,2511.9,0.0500,-61.09,38.26
282,2541.0,0.0500,-60.99,24.97
283,2570.4,0.0500,-63.20,36.97
284,2600.2,0.0500,-62.75,32.14
285,2630.3,0.0500,-63.93,32.61
286,2660.7,0.0500,-61.53,26.07
287,2691.5,0.0500,-65.31,44.74
288,2722.7,0.0500,-65.53,8.59
289,2754.2,0.0500,-61.22,45.96
290,2786.1,0.0500,-61.74,42.38
291,2818.4,0.0500,-62.74,41.93
292,2851.0,0.0500,-60.14,36.42
293,2884.0,0.0500,-62.11,47.37
294,2917.4,0.0500,-61.81,36.23
295,2951.2,0.0500,-61.16,42.53
296,2985.4,0.0500,-62.85,41.94
297,3020.0,0.0500,-61.71,43.41
298,3054.9,0.0500,-61.71,35.82
299,3090.3,0.0500,-62.70,40.84
300,3126.1,0.0500,-60.85,40.89
301,3162.3,0.0500,-60.43,42.52
302,3198.9,0.0500,-60.75,45.25
303,3235.9,0.0500,-60.81,40.37
304,3273.4,0.0500,-62.40,40.54
305,3311.3,0.0500,-61.54,48.67
306,3349.7,0.0500,-59.23,43.92
307,3388.4,0.0500,-60.85,48.33
308,3427.7,0.0500,-60.85,43.22
309,3467.4,0.0500,-60.53,43.88
310,3507.5,0.0500,-60.52,27.92
311,3548.1,0.0500,-60.57,49.37
312,3589.2,0.0500,-60.97,42.52
313,3630.8,0.0500,-61.99,51.16
314,3672.8,0.0500,-61.32,48.38
315,3715.4,0.0500,-60.14,40.90
316,3758.4,0.0500,-60.18,27.20
317,3801.9,0.0500,-61.08,29.80
318,3845.9,0.0500,-60.80,37.77
319,3890.5,0.0500,-60.12,44.92
320,3935.5,0.0500,-59.22,34.27
321,3981.1,0.0500,-59.53,43.43
322,4027.2,0.0500,-60.39,52.97
323,4073.8,0.0500,-60.21,39.32
324,4121.0,0.0500,-59.55,42.79
325,4168.7,0.0500,-59.44,47.02
326,4217.0,0.0500,-59.85,49.81
327,4265.8,0.0500,-59.80,48.27
328,4315.2,0.0500,-59.72,49.15
329,4365.2,0.0500,-60.25,47.44
330,4415.7,0.0500,-60.35,47.28
331,4466.8,0.0500,-59.97,47.04
332,4518.6,0.0500,-59.40,52.06
333,4570.9,0.0500,-59.90,54.33
334,4623.8,0.0500,-59.27,50.15
335,4677.4,0.0500,-59.37,50.77
336,4731.5,0.0500,-59.38,47.66
337,4786.3,0.0500,-59.59,46.58
338,4841.7,0.0500,-59.09,53.56
339,4897.8,0.0500,-59.89,54.88
340,4954.5,0.0500,-58.85,48.87
341,5011.9,0.0500,-59.38,43.13
342,5069.9,0.0500,-59.67,52.16
343,5128.6,0.0500,-58.88,55.61
344,5188.0,0.0500,-58.09,53.21
345,5248.1,0.0500,-58.90,59.02
346,5308.8,0.0500,-59.02,54.02
347,5370.3,0.0500,-58.46,53.65
348,5432.5,0.0500,-57.84,48.74
349,5495.4,0.0500,-59.00,51.49
350,5559.0,0.0500,-60.25,55.68
351,5623.4,0.0500,-58.71,58.73
352,5688.5,0.0500,-59.62,53.08
353,5754.4,0.0500,-58.03,51.01
354,5821.0,0.0500,-59.00,54.64
355,5888.4,0.0500,-58.77,55.80
356,5956.6,0.0500,-58.65,60.93
357,6025.6,0.0500,-57.55,57.66
358,6095.4,0.0500,-57.70,62.41
359,6166.0,0.0500,-58.02,60.25
360,6237.3,0.0500,-58.06,56.85
361,6309.6,0.0500,-57.57,57.93
362,6382.6,0.0500,-58.52,58.49
363,6456.5,0.0500,-57.52,60.50
364,6531.3,0.0500,-58.55,56.69
365,6606.9,0.0500,-57.94,56.82
366,6683.4,0.0500,-57.35,57.24
367,6760.8,0.0500,-57.24,61.45
368,6839.1,0.0500,-57.95,51.02
369,6918.3,0.0500,-56.90,60.49
370,6998.4,0.0500,-57.46,59.12
371,7079.5,0.0500,-57.45,60.95
372,7161.4,0.0500,-56.16,62.07
373,7244.4,0.0500,-56.90,55.77
374,7328.2,0.0500,-56.58,55.13
375,7413.1,0.0500,-56.58,62.19
376,7498.9,0.0500,-57.59,35.91
377,7585.8,0.0500,-55.96,60.04
378,7673.6,0.0500,-56.34,65.20
379,7762.5,0.0500,-56.18,56.49
380,7852.4,0.0500,-56.04,61.38
381,7943.3,0.0500,-56.60,59.51
382,8035.3,0.0500,-55.96,61.33
383,8128.3,0.0500,-55.59,64.53
384,8222.4,0.0500,-56.38,62.18
385,8317.6,0.0500,-55.83,63.22
386,8414.0,0.0500,-55.94,65.44
387,8511.4,0.0500,-55.94,60.97
388,8609.9,0.0500,-55.86,65.43
389,8709.6,0.0500,-55.92,64.90
390,8810.5,0.0500,-56.12,64.22
391,8912.5,0.0500,-55.63,64.50
392,9015.7,0.0500,-55.54,63.53
393,9120.1,0.0500,-55.36,67.34
394,9225.7,0.0500,-55.38,64.49
395,9332.5,0.0500,-55.95,61.97
396,9440.6,0.0500,-55.13,67.37
397,9549.9,0.0500,-54.97,64.53
398,9660.5,0.0500,-54.78,66.83
399,9772.4,0.0500,-54.99,66.76
400,9885.5,0.0500,-55.40,66.74
401,10000.0,0.0500,-55.00,66.69
402,10115.8,0.0500,-54.86,69.36
403,10232.9,0.0500,-54.21,66.68
404,10351.4,0.0500,-54.42,67.49
405,10471.3,0.0500,-54.16,68.57
406,10592.5,0.0500,-53.82,68.14
407,10715.2,0.0500,-53.83,66.67
408,10839.3,0.0500,-54.31,69.35
409,10964.8,0.0500,-53.96,68.84
410,11091.7,0.0500,-54.02,69.28
411,11220.2,0.0500,-53.86,70.29
412,11350.1,0.0500,-53.75,68.42
413,11481.5,0.0500,-54.06,72.11
414,11614.5,0.0500,-53.54,68.86
415,11749.0,0.0500,-53.89,68.87
416,11885.0,0.0500,-53.62,70.47
417,12022.6,0.0500,-53.51,72.66
418,12161.9,0.0500,-52.51,67.90
419,12302.7,0.0500,-53.37,70.08
420,12445.1,0.0500,-52.72,74.22
421,12589.3,0.0500,-52.77,68.43
422,12735.0,0.0500,-52.75,68.41
423,12882.5,0.0500,-52.95,72.10
424,13031.7,0.0500,-52.75,70.57
425,13182.6,0.0500,-52.18,70.74
426,13335.2,0.0500,-52.53,74.02
427,13489.6,0.0500,-52.70,67.85
428,13645.8,0.0500,-52.35,70.86
429,13803.8,0.0500,-52.66,69.71
430,13963.7,0.0500,-52.62,71.81
431,14125.4,0.0500,-52.18,69.80
432,14288.9,0.0500,-51.98,74.17
433,14454.4,0.0500,-52.10,70.50
434,14621.8,0.0500,-51.73,70.68
435,14791.1,0.0500,-51.68,70.62
436,14962.4,0.0500,-51.70,71.10
437,15135.6,0.0500,-51.39,71.15
438,15310.9,0.0500,-51.37,72.40
439,15488.2,0.0500,-51.03,72.12
440,15667.5,0.0500,-51.26,73.04
441,15848.9,0.0500,-51.01,72.90
442,16032.5,0.0500,-51.35,72.69
443,16218.1,0.0500,-50.83,76.11
444,16405.9,0.0500,-51.05,72.98
445,16595.9,0.0500,-50.57,74.65
446,16788.0,0.0500,-50.19,73.87
447,16982.4,0.0500,-50.81,73.00
448,17179.1,0.0500,-51.08,74.68
449,17378.0,0.0500,-50.43,73.00
450,17579.2,0.0500,-50.55,73.17
451,17782.8,0.0500,-50.34,76.16
452,17988.7,0.0500,-49.88,72.41
453,18197.0,0.0500,-50.08,75.04
454,18407.7,0.0500,-50.04,74.90
455,18620.9,0.0500,-49.87,73.88
456,18836.5,0.0500,-49.74,73.55
457,19054.6,0.0500,-49.80,76.03
458,19275.2,0.0500,-49.46,75.87
459,19498.4,0.0500,-49.68,76.61
460,19724.2,0.0500,-49.63,75.68
461,19952.6,0.0500,-49.51,75.52
462,20183.7,0.0500,-49.35,74.95
463,20417.4,0.0500,-49.20,75.44
464,20653.8,0.0500,-49.22,74.58
465,20893.0,0.0500,-48.91,75.48
466,21134.9,0.0500,-48.98,76.00
467,21379.6,0.0500,-48.77,78.77
468,21627.2,0.0500,-48.62,75.70
469,21877.6,0.0500,-48.51,75.35
470,22130.9,0.0500,-48.54,75.32
471,22387.2,0.0500,-48.34,74.51
472,22646.4,0.0500,-48.21,74.91
473,22908.7,0.0500,-48.24,76.44
474,23173.9,0.0500,-48.20,77.29
475,23442.3,0.0500,-48.22,74.85
476,23713.7,0.0500,-47.73,75.95
477,23988.3,0.0500,-47.95,77.39
478,24266.1,0.0500,-47.86,77.25
479,24547.1,0.0500,-47.75,77.86
480,24831.3,0.0500,-47.71,77.28
481,25118.9,0.0500,-47.54,76.16
482,25409.7,0.0500,-47.22,77.98
483,25704.0,0.0500,-47.44,77.26
484,26001.6,0.0500,-47.10,76.31
485,26302.7,0.0500,-46.87,77.07
486,26607.3,0.0500,-47.20,78.13
487,26915.3,0.0500,-46.82,77.77
488,27227.0,0.0500,-46.94,77.24
489,27542.3,0.0500,-46.73,76.92
490,27861.2,0.0500,-46.72,77.58
491,28183.8,0.0500,-46.55,77.56
492,28510.2,0.0500,-46.46,78.42
493,28840.3,0.0500,-46.30,77.99
494,29174.3,0.0500,-46.25,78.39
495,29512.1,0.0500,-46.16,77.62
496,29853.8,0.0500,-46.05,78.61
497,30199.5,0.0500,-45.90,79.00
498,30549.2,0.0500,-45.79,78.59
499,30903.0,0.0500,-45.77,77.57
500,31260.8,0.0500,-45.76,77.72
501,31622.8,0.0500,-45.75,80.95
502,31989.0,0.0500,-45.44,79.75
503,32359.4,0.0500,-45.64,79.47
504,32734.1,0.0500,-45.26,78.93
505,33113.1,0.0500,-45.20,79.95
506,33496.5,0.0500,-45.13,79.45
507,33884.4,0.0500,-45.08,79.04
508,34276.8,0.0500,-44.89,79.42
509,34673.7,0.0500,-44.81,79.73
510,35075.2,0.0500,-44.89,79.02
511,35481.3,0.0500,-44.65,78.29
512,35892.2,0.0500,-44.60,79.62
513,36307.8,0.0500,-44.66,78.93
514,36728.2,0.0500,-44.29,78.69
515,37153.5,0.0500,-44.27,78.72
516,37583.7,0.0500,-44.14,79.11
517,38018.9,0.0500,-43.97,79.25
518,38459.2,0.0500,-44.10,79.50
519,38904.5,0.0500,-43.99,79.60
520,39355.0,0.0500,-43.82,79.86
521,39810.7,0.0500,-43.74,79.99
522,40271.7,0.0500,-43.56,80.70
523,40738.0,0.0500,-43.44,78.98
524,41209.8,0.0500,-43.55,79.78
525,41686.9,0.0500,-43.26,79.43
526,42169.7,0.0500,-43.19,80.27
527,42658.0,0.0500,-43.08,79.80
528,43151.9,0.0500,-43.05,79.78
529,43651.6,0.0500,-42.79,79.72
530,44157.0,0.0500,-42.92,79.17
531,44668.4,0.0500,-42.70,79.83
532,45185.6,0.0500,-42.51,79.60
533,45708.8,0.0500,-42.51,78.61
534,46238.1,0.0500,-42.55,79.96
535,46773.5,0.0500,-42.58,79.30
536,47315.1,0.0500,-42.51,81.82
537,47863.0,0.0500,-42.29,81.03
538,48417.2,0.0500,-42.15,79.89
539,48977.9,0.0500,-42.07,81.26
540,49545.0,0.0500,-41.82,79.84
541,50118.7,0.0500,-41.74,80.57
542,50699.1,0.0500,-41.63,80.11
543,51286.1,0.0500,-41.53,78.53
544,51880.0,0.0500,-41.16,79.16
545,52480.7,0.0500,-41.32,79.77
546,53088.4,0.0500,-40.97,78.93
547,53703.2,0.0500,-41.15,80.12
548,54325.0,0.0500,-40.98,80.95
549,54954.1,0.0500,-40.93,80.78
550,55590.4,0.0500,-41.09,79.19
551,56234.1,0.0500,-40.71,79.14
552,56885.3,0.0500,-40.42,79.66
553,57544.0,0.0500,-40.65,78.96
554,58210.3,0.0500,-40.60,79.76
555,58884.4,0.0500,-40.38,80.26
556,59566.2,0.0500,-40.31,80.20
557,60256.0,0.0500,-40.28,78.55
558,60953.7,0.0500,-40.12,79.09
559,61659.5,0.0500,-39.90,80.51
560,62373.5,0.0500,-40.15,79.63
561,63095.7,0.0500,-40.01,80.04
562,63826.3,0.0500,-39.92,79.64
563,64565.4,0.0500,-39.70,80.02
564,65313.1,0.0500,-39.69,79.89
565,66069.3,0.0500,-39.61,80.24
566,66834.4,0.0500,-39.34,80.95
567,67608.3,0.0500,-39.33,81.45
568,68391.2,0.0500,-39.26,81.87
569,69183.1,0.0500,-39.13,80.10
570,69984.2,0.0500,-39.22,81.40
571,70794.6,0.0500,-38.94,80.09
572,71614.3,0.0500,-38.89,80.76
573,72443.6,0.0500,-38.64,80.17
574,73282.5,0.0500,-38.97,80.25
575,74131.0,0.0500,-38.56,81.13
576,74989.4,0.0500,-38.82,80.43
577,75857.8,0.0500,-38.23,80.24
578,76736.1,0.0500,-38.37,81.30
579,77624.7,0.0500,-38.31,80.83
580,78523.6,0.0500,-38.00,80.58
581,79432.8,0.0500,-38.04,80.49
582,80352.6,0.0500,-38.11,81.03
583,81283.1,0.0500,-37.76,79.85
584,82224.3,0.0500,-37.86,80.62
585,83176.4,0.0500,-37.66,80.21
586,84139.5,0.0500,-37.61,80.00
587,85113.8,0.0500,-37.46,81.02
588,86099.4,0.0500,-37.40,81.25
589,87096.4,0.0500,-37.22,80.78
590,88104.9,0.0500,-37.14,80.68
591,89125.1,0.0500,-37.09,81.20
592,90157.1,0.0500,-37.05,80.89
593,91201.1,0.0500,-36.94,81.77
594,92257.1,0.0500,-36.94,81.03
595,93325.4,0.0500,-36.64,80.10
596,94406.1,0.0500,-36.47,81.44
597,95499.3,0.0500,-36.36,80.71
598,96605.1,0.0500,-36.31,81.00
599,97723.7,0.0500,-36.21,81.47
600,98855.3,0.0500,-36.17,80.97
601,100000.0,0.0500,-36.15,80.97
602,101157.9,0.0500,-35.81,79.68
603,102329.3,0.0500,-35.79,80.87
604,103514.2,0.0500,-35.66,80.76
605,104712.9,0.0500,-35.49,80.29
606,105925.4,0.0500,-35.38,81.31
607,107151.9,0.0500,-35.49,80.71
608,108392.7,0.0500,-35.30,81.37
609,109647.8,0.0500,-35.13,80.99
610,110917.5,0.0500,-35.03,81.67
611,112201.8,0.0500,-34.91,80.82
612,113501.1,0.0500,-34.76,81.31
613,114815.4,0.0500,-34.82,80.71
614,116144.9,0.0500,-34.70,80.68
615,117489.8,0.0500,-34.54,80.73
616,118850.2,0.0500,-34.60,80.70
617,120226.4,0.0500,-34.37,80.75
618,121618.6,0.0500,-34.03,80.18
619,123026.9,0.0500,-34.35,81.03
620,124451.5,0.0500,-34.25,80.49
621,125892.5,0.0500,-33.95,80.24
622,127350.3,0.0500,-33.92,80.24
623,128825.0,0.0500,-33.72,80.73
624,130316.7,0.0500,-33.71,81.34
625,131825.7,0.0500,-33.49,80.29
626,133352.1,0.0500,-33.18,80.01
627,134896.3,0.0500,-33.32,80.71
628,136458.3,0.0500,-33.26,81.10
629,138038.4,0.0500,-33.25,80.94
630,139636.8,0.0500,-32.85,80.15
631,141253.8,0.0500,-33.09,80.89
632,142889.4,0.0500,-32.72,80.52
633,144544.0,0.0500,-32.32,81.17
634,146217.7,0.0500,-33.00,78.75
635,147910.8,0.0500,-32.42,81.01
636,149623.6,0.0500,-32.47,83.46
637,151356.1,0.0500,-32.77,80.45
638,153108.7,0.0500,-32.05,81.07
639,154881.7,0.0500,-32.07,80.03
640,156675.1,0.0500,-31.65,77.07
641,158489.3,0.0500,-31.67,78.49
642,160324.5,0.0500,-31.63,76.96
643,162181.0,0.0500,-31.30,81.16
644,164059.0,0.0500,-31.42,79.72
645,165958.7,0.0500,-30.82,78.64
646,167880.4,0.0500,-30.65,78.66
647,169824.4,0.0500,-31.35,77.42
