#, Frequency (Hz), Amplitude (Vpp), Gain (dB), Phase (°)
1,100.0,0.0500,-72.07,8.31
2,101.2,0.0500,-70.52,-0.63
3,102.3,0.0500,-73.93,-9.94
4,103.5,0.0500,-74.15,-5.42
5,104.7,0.0500,-74.24,14.32
6,105.9,0.0500,-72.46,-5.18
7,107.2,0.0500,-73.17,8.65
8,108.4,0.0500,-74.88,33.43
9,109.6,0.0500,-73.16,-5.81
10,110.9,0.0500,-77.24,0.52
11,112.2,0.0500,-74.44,2.38
12,113.5,0.0500,-72.63,5.16
13,114.8,0.0500,-73.11,-30.35
14,116.1,0.0500,-72.59,4.33
15,117.5,0.0500,-71.47,-11.27
16,118.9,0.0500,-71.60,6.67
17,120.2,0.0500,-76.24,11.41
18,121.6,0.0500,-72.46,2.95
19,123.0,0.0500,-70.29,-3.73
20,124.5,0.0500,-76.08,8.19
21,125.9,0.0500,-73.96,7.62
22,127.4,0.0500,-72.89,-8.98
23,128.8,0.0500,-74.95,12.66
24,130.3,0.0500,-72.23,-1.71
25,131.8,0.0500,-72.36,-7.78
26,133.4,0.0500,-73.20,-8.64
27,134.9,0.0500,-74.68,4.71
28,136.5,0.0500,-73.55,0.25
29,138.0,0.0500,-73.79,-5.77
30,139.6,0.0500,-75.47,15.03
31,141.3,0.0500,-73.70,23.23
32,142.9,0.0500,-71.78,18.52
33,144.5,0.0500,-73.62,-3.43
34,146.2,0.0500,-72.15,3.69
35,147.9,0.0500,-73.06,7.39
36,149.6,0.0500,-69.75,9.55
37,151.4,0.0500,-71.20,7.86
38,153.1,0.0500,-69.29,13.80
39,154.9,0.0500,-72.23,-7.94
40,156.7,0.0500,-73.29,-10.64
41,158.5,0.0500,-69.61,-15.58
42,160.3,0.0500,-70.46,12.71
43,162.2,0.0500,-71.92,-4.03
44,164.1,0.0500,-71.83,11.18
45,166.0,0.0500,-72.32,17.18
46,167.9,0.0500,-71.93,-6.61
47,169.8,0.0500,-71.64,-1.66
48,171.8,0.0500,-71.82,-18.68
49,173.8,0.0500,-72.63,-4.30
50,175.8,0.0500,-72.61,0.13
51,177.8,0.0500,-73.82,5.69
52,179.9,0.0500,-71.71,7.97
53,182.0,0.0500,-75.71,-13.25
54,184.1,0.0500,-70.83,27.86
55,186.2,0.0500,-72.72,-13.84
56,188.4,0.0500,-72.79,5.51
57,190.5,0.0500,-71.42,-3.75
58,192.8,0.0500,-72.25,11.81
59,195.0,0.0500,-70.64,-3.27
60,197.2,0.0500,-72.30,-1.79
61,199.5,0.0500,-71.12,-1.89
62,201.8,0.0500,-71.20,11.50
63,204.2,0.0500,-72.19,-16.68
64,206.5,0.0500,-72.36,12.54
65,208.9,0.0500,-74.70,-16.04
66,211.3,0.0500,-71.51,8.73
67,213.8,0.0500,-69.71,8.11
68,216.3,0.0500,-70.34,-1.45
69,218.8,0.0500,-70.43,20.44
70,221.3,0.0500,-70.84,-12.18
71,223.9,0.0500,-71.61,13.97
72,226.5,0.0500,-70.00,4.18
73,229.1,0.0500,-71.61,-3.55
74,231.7,0.0500,-71.75,5.68
75,234.4,0.0500,-71.16,1.30
76,237.1,0.0500,-72.94,-5.86
77,239.9,0.0500,-75.14,8.65
78,242.7,0.0500,-72.66,1.52
79,245.5,0.0500,-72.89,7.35
80,248.3,0.0500,-71.19,8.33
81,251.2,0.0500,-70.73,13.86
82,254.1,0.0500,-73.07,17.59
83,257.0,0.0500,-73.27,14.05
84,260.0,0.0500,-72.42,3.75
85,263.0,0.0500,-71.98,0.02
86,266.1,0.0500,-73.98,22.94
87,269.2,0.0500,-70.46,1.46
88,272.3,0.0500,-71.10,-0.59
89,275.4,0.0500,-72.94,10.60
90,278.6,0.0500,-73.37,14.64
91,281.8,0.0500,-72.62,8.91
92,285.1,0.0500,-72.39,13.05
93,288.4,0.0500,-72.64,-0.32
94,291.7,0.0500,-70.29,9.43
95,295.1,0.0500,-71.85,10.97
96,298.5,0.0500,-70.94,2.36
97,302.0,0.0500,-72.48,-4.27
98,305.5,0.0500,-71.45,1.21
99,309.0,0.0500,-73.01,8.07
100,312.6,0.0500,-72.05,7.07
101,316.2,0.0500,-70.37,-3.35
102,319.9,0.0500,-73.39,-3.93
103,323.6,0.0500,-72.47,4.48
104,327.3,0.0500,-70.32,8.76
105,331.1,0.0500,-69.45,1.77
106,335.0,0.0500,-71.03,9.06
107,338.8,0.0500,-71.82,12.52
108,342.8,0.0500,-72.28,-0.63
109,346.7,0.0500,-71.74,5.42
110,350.8,0.0500,-75.66,9.37
111,354.8,0.0500,-71.49,19.94
112,358.9,0.0500,-72.66,17.93
113,363.1,0.0500,-75.43,6.17
114,367.3,0.0500,-70.30,-1.45
115,371.5,0.0500,-70.89,-1.39
116,375.8,0.0500,-70.69,-1.86
117,380.2,0.0500,-72.07,8.85
118,384.6,0.0500,-74.03,16.41
119,389.0,0.0500,-72.52,3.57
120,393.6,0.0500,-71.64,5.05
121,398.1,0.0500,-72.09,1.54
122,402.7,0.0500,-71.78,15.61
123,407.4,0.0500,-70.66,-6.04
124,412.1,0.0500,-71.71,4.38
125,416.9,0.0500,-71.64,7.17
126,421.7,0.0500,-73.05,-1.68
127,426.6,0.0500,-71.75,-0.64
128,431.5,0.0500,-70.11,4.10
129,436.5,0.0500,-71.99,16.09
130,441.6,0.0500,-70.63,14.87
131,446.7,0.0500,-72.06,1.17
132,451.9,0.0500,-71.27,-1.71
133,457.1,0.0500,-70.43,7.05
134,462.4,0.0500,-72.17,3.46
135,467.7,0.0500,-71.38,-1.06
136,473.2,0.0500,-68.76,1.11
137,478.6,0.0500,-71.32,18.36
138,484.2,0.0500,-69.85,-4.93
139,489.8,0.0500,-72.17,1.62
140,495.5,0.0500,-71.31,9.19
141,501.2,0.0500,-73.81,23.61
142,507.0,0.0500,-72.94,-7.35
143,512.9,0.0500,-72.97,-12.47
144,518.8,0.0500,-70.44,6.86
145,524.8,0.0500,-71.40,3.31
146,530.9,0.0500,-69.60,7.81
147,537.0,0.0500,-71.32,10.33
148,543.3,0.0500,-72.06,5.14
149,549.5,0.0500,-73.09,6.04
150,555.9,0.0500,-71.91,4.49
151,562.3,0.0500,-71.22,-4.59
152,568.9,0.0500,-71.95,11.61
153,575.4,0.0500,-71.47,0.17
154,582.1,0.0500,-71.88,7.20
155,588.8,0.0500,-71.77,17.26
156,595.7,0.0500,-72.37,-3.30
157,602.6,0.0500,-72.97,10.86
158,609.5,0.0500,-71.36,-0.05
159,616.6,0.0500,-70.33,3.69
160,623.7,0.0500,-70.94,2.55
161,631.0,0.0500,-70.49,14.56
162,638.3,0.0500,-70.39,16.58
163,645.7,0.0500,-71.16,13.29
164,653.1,0.0500,-71.35,14.83
165,660.7,0.0500,-72.20,0.75
166,668.3,0.0500,-70.05,21.78
167,676.1,0.0500,-71.27,10.67
168,683.9,0.0500,-70.34,4.33
169,691.8,0.0500,-72.07,2.03
170,699.8,0.0500,-70.32,-1.36
171,707.9,0.0500,-69.10,15.28
172,716.1,0.0500,-72.93,9.05
173,724.4,0.0500,-70.12,3.30
174,732.8,0.0500,-73.31,-5.65
175,741.3,0.0500,-75.51,4.75
176,749.9,0.0500,-71.22,-6.51
177,758.6,0.0500,-70.31,-2.99
178,767.4,0.0500,-70.43,21.33
179,776.2,0.0500,-71.63,36.78
180,785.2,0.0500,-75.73,23.03
181,794.3,0.0500,-69.43,2.46
182,803.5,0.0500,-69.49,9.48
183,812.8,0.0500,-70.92,8.25
184,822.2,0.0500,-71.23,9.71
185,831.8,0.0500,-71.61,6.99
186,841.4,0.0500,-71.70,9.06
187,851.1,0.0500,-70.81,5.72
188,861.0,0.0500,-72.22,15.32
189,871.0,0.0500,-70.07,16.81
190,881.0,0.0500,-70.71,4.91
191,891.3,0.0500,-69.56,-1.91
192,901.6,0.0500,-69.92,9.05
193,912.0,0.0500,-71.73,11.01
194,922.6,0.0500,-71.04,7.28
195,933.3,0.0500,-69.34,3.32
196,944.1,0.0500,-71.96,-12.80
197,955.0,0.0500,-71.82,33.48
198,966.1,0.0500,-70.17,5.80
199,977.2,0.0500,-71.91,-2.41
200,988.6,0.0500,-69.15,18.80
201,1000.0,0.0500,-69.72,0.92
202,1011.6,0.0500,-74.49,-22.30
203,1023.3,0.0500,-69.19,28.92
204,1035.1,0.0500,-70.18,17.78
205,1047.1,0.0500,-73.13,10.16
206,1059.3,0.0500,-73.03,3.01
207,1071.5,0.0500,-73.86,9.25
208,1083.9,0.0500,-71.09,32.46
209,1096.5,0.0500,-70.70,4.44
210,1109.2,0.0500,-73.24,-8.80
211,1122.0,0.0500,-70.94,12.30
212,1135.0,0.0500,-72.23,10.65
213,1148.2,0.0500,-72.81,12.16
214,1161.4,0.0500,-70.07,4.01
215,1174.9,0.0500,-71.50,21.26
216,1188.5,0.0500,-69.84,18.65
217,1202.3,0.0500,-70.33,5.07
218,1216.2,0.0500,-69.38,19.51
219,1230.3,0.0500,-69.56,22.19
220,1244.5,0.0500,-70.85,25.59
221,1258.9,0.0500,-70.31,25.73
222,1273.5,0.0500,-71.06,19.99
223,1288.2,0.0500,-71.04,21.33
224,1303.2,0.0500,-69.77,13.31
225,1318.3,0.0500,-70.46,17.60
226,1333.5,0.0500,-69.91,12.57
227,1349.0,0.0500,-71.32,29.58
228,1364.6,0.0500,-70.72,12.66
229,1380.4,0.0500,-69.69,35.69
230,1396.4,0.0500,-71.02,7.25
231,1412.5,0.0500,-66.67,25.90
232,1428.9,0.0500,-70.91,14.40
233,1445.4,0.0500,-71.24,5.80
234,1462.2,0.0500,-70.98,15.45
235,1479.1,0.0500,-68.52,10.79
236,1496.2,0.0500,-73.59,-0.84
237,1513.6,0.0500,-68.17,20.86
238,1531.1,0.0500,-72.11,68.60
239,1548.8,0.0500,-68.86,46.12
240,1566.8,0.0500,-67.26,-2.67
241,1584.9,0.0500,-67.09,19.56
242,1603.2,0.0500,-74.92,13.86
243,1621.8,0.0500,-71.14,33.38
244,1640.6,0.0500,-71.82,23.07
245,1659.6,0.0500,-73.21,-0.85
246,1678.8,0.0500,-71.14,74.73
247,1698.2,0.0500,-69.06,29.31
248,1717.9,0.0500,-67.75,15.17
249,1737.8,0.0500,-69.11,11.36
250,1757.9,0.0500,-68.72,3.04
251,1778.3,0.0500,-77.72,22.41
252,1798.9,0.0500,-69.49,30.83
253,1819.7,0.0500,-74.83,-1.18
254,1840.8,0.0500,-76.57,1.36
255,1862.1,0.0500,-69.56,21.69
256,1883.6,0.0500,-70.83,37.03
257,1905.5,0.0500,-66.74,19.00
258,1927.5,0.0500,-70.01,-18.34
259,1949.8,0.0500,-65.42,67.00
260,1972.4,0.0500,-68.40,5.96
261,1995.3,0.0500,-72.92,37.46
262,2018.4,0.0500,-70.19,-9.75
263,2041.7,0.0500,-70.30,10.79
264,2065.4,0.0500,-70.70,31.69
265,2089.3,0.0500,-70.90,16.10
266,2113.5,0.0500,-70.27,15.46
267,2138.0,0.0500,-69.58,15.31
268,2162.7,0.0500,-70.76,11.59
269,2187.8,0.0500,-71.18,6.58
270,2213.1,0.0500,-68.55,21.79
271,2238.7,0.0500,-70.13,28.39
272,2264.6,0.0500,-70.70,39.70
273,2290.9,0.0500,-71.91,29.62
274,2317.4,0.0500,-70.44,13.57
275,2344.2,0.0500,-73.43,20.80
276,2371.4,0.0500,-71.69,46.28
277,2398.8,0.0500,-69.58,43.73
278,2426.6,0.0500,-71.65,57.07
279,2454.7,0.0500,-70.20,30.74
280,2483.1,0.0500,-70.18,28.54
281,2511.9,0.0500,-69.41,25.70
282,2541.0,0.0500,-67.28,40.05
283,2570.4,0.0500,-70.86,40.90
284,2600.2,0.0500,-68.86,30.29
285,2630.3,0.0500,-69.35,30.18
286,2660.7,0.0500,-68.27,21.68
287,2691.5,0.0500,-71.33,23.20
288,2722.7,0.0500,-70.70,3.01
289,2754.2,0.0500,-68.45,28.02
290,2786.1,0.0500,-71.94,44.24
291,2818.4,0.0500,-75.13,35.11
292,2851.0,0.0500,-68.87,16.33
293,2884.0,0.0500,-72.58,60.67
294,2917.4,0.0500,-68.23,38.42
295,2951.2,0.0500,-67.74,27.88
296,2985.4,0.0500,-69.61,40.29
297,3020.0,0.0500,-67.12,41.21
298,3054.9,0.0500,-70.35,15.81
299,3090.3,0.0500,-70.84,22.91
300,3126.1,0.0500,-71.89,40.95
301,3162.3,0.0500,-71.60,21.77
302,3198.9,0.0500,-69.84,15.15
303,3235.9,0.0500,-69.16,29.17
304,3273.4,0.0500,-67.69,30.87
305,3311.3,0.0500,-69.58,22.91
306,3349.7,0.0500,-70.07,41.78
307,3388.4,0.0500,-70.38,32.27
308,3427.7,0.0500,-75.17,53.09
309,3467.4,0.0500,-67.96,38.39
310,3507.5,0.0500,-69.84,16.29
311,3548.1,0.0500,-69.17,30.59
312,3589.2,0.0500,-66.66,8.02
313,3630.8,0.0500,-66.61,12.17
314,3672.8,0.0500,-79.61,29.66
315,3715.4,0.0500,-73.15,54.16
316,3758.4,0.0500,-66.55,36.00
317,3801.9,0.0500,-71.27,63.40
318,3845.9,0.0500,-66.87,39.20
319,3890.5,0.0500,-70.59,45.52
320,3935.5,0.0500,-72.07,32.56
321,3981.1,0.0500,-69.19,41.36
322,4027.2,0.0500,-69.52,46.24
323,4073.8,0.0500,-69.53,33.72
324,4121.0,0.0500,-65.87,23.49
325,4168.7,0.0500,-70.90,38.53
326,4217.0,0.0500,-69.28,45.80
327,4265.8,0.0500,-68.72,29.32
328,4315.2,0.0500,-68.24,41.91
329,4365.2,0.0500,-68.93,35.43
330,4415.7,0.0500,-67.99,35.48
331,4466.8,0.0500,-70.14,40.68
332,4518.6,0.0500,-68.80,45.35
333,4570.9,0.0500,-66.45,41.96
334,4623.8,0.0500,-69.04,52.15
335,4677.4,0.0500,-68.56,45.95
336,4731.5,0.0500,-68.44,42.80
337,4786.3,0.0500,-69.76,34.74
338,4841.7,0.0500,-70.47,12.05
339,4897.8,0.0500,-70.11,36.63
340,4954.5,0.0500,-66.96,41.97
341,5011.9,0.0500,-67.70,36.99
342,5069.9,0.0500,-66.78,22.74
343,5128.6,0.0500,-71.72,31.60
344,5188.0,0.0500,-70.10,52.64
345,5248.1,0.0500,-68.12,43.55
346,5308.8,0.0500,-70.14,48.80
347,5370.3,0.0500,-70.31,48.66
348,5432.5,0.0500,-68.43,55.63
349,5495.4,0.0500,-69.20,36.19
350,5559.0,0.0500,-68.46,64.26
351,5623.4,0.0500,-71.24,38.06
352,5688.5,0.0500,-66.19,45.28
353,5754.4,0.0500,-67.54,44.06
354,5821.0,0.0500,-67.19,38.78
355,5888.4,0.0500,-65.53,50.26
356,5956.6,0.0500,-64.89,57.71
357,6025.6,0.0500,-68.90,38.46
358,6095.4,0.0500,-69.01,40.57
359,6166.0,0.0500,-65.07,51.80
360,6237.3,0.0500,-66.73,28.89
361,6309.6,0.0500,-66.28,52.34
362,6382.6,0.0500,-65.86,48.82
363,6456.5,0.0500,-69.46,50.83
364,6531.3,0.0500,-68.24,47.75
365,6606.9,0.0500,-66.11,49.79
366,6683.4,0.0500,-67.03,50.90
367,6760.8,0.0500,-67.82,56.71
368,6839.1,0.0500,-65.75,53.29
369,6918.3,0.0500,-67.28,57.71
370,6998.4,0.0500,-65.58,44.56
371,7079.5,0.0500,-66.03,48.40
372,7161.4,0.0500,-65.88,58.70
373,7244.4,0.0500,-67.66,62.35
374,7328.2,0.0500,-67.07,73.43
375,7413.1,0.0500,-66.56,45.21
376,7498.9,0.0500,-63.98,54.77
377,7585.8,0.0500,-67.61,48.01
378,7673.6,0.0500,-65.34,51.18
379,7762.5,0.0500,-66.44,61.60
380,7852.4,0.0500,-65.68,56.38
381,7943.3,0.0500,-66.62,50.40
382,8035.3,0.0500,-66.07,62.35
383,8128.3,0.0500,-67.48,53.92
384,8222.4,0.0500,-66.44,51.71
385,8317.6,0.0500,-66.12,58.29
386,8414.0,0.0500,-66.06,55.67
387,8511.4,0.0500,-64.30,61.09
388,8609.9,0.0500,-65.02,55.60
389,8709.6,0.0500,-65.49,59.11
390,8810.5,0.0500,-65.06,57.34
391,8912.5,0.0500,-65.21,49.86
392,9015.7,0.0500,-65.00,69.06
393,9120.1,0.0500,-65.67,53.93
394,9225.7,0.0500,-62.76,61.88
395,9332.5,0.0500,-64.57,55.74
396,9440.6,0.0500,-64.63,54.94
397,9549.9,0.0500,-65.77,52.56
398,9660.5,0.0500,-65.18,53.88
399,9772.4,0.0500,-64.73,60.95
400,9885.5,0.0500,-64.25,63.52
401,10000.0,0.0500,-65.66,67.27
402,10115.8,0.0500,-65.64,66.58
403,10232.9,0.0500,-64.68,53.72
404,10351.4,0.0500,-65.39,60.38
405,10471.3,0.0500,-64.41,62.81
406,10592.5,0.0500,-64.07,58.41
407,10715.2,0.0500,-65.04,67.98
408,10839.3,0.0500,-63.80,59.97
409,10964.8,0.0500,-64.19,55.64
410,11091.7,0.0500,-63.87,60.23
411,11220.2,0.0500,-63.44,58.30
412,11350.1,0.0500,-63.95,64.54
413,11481.5,0.0500,-64.41,63.56
414,11614.5,0.0500,-64.74,53.35
415,11749.0,0.0500,-63.44,63.93
416,11885.0,0.0500,-64.24,66.65
417,12022.6,0.0500,-62.14,71.55
418,12161.9,0.0500,-62.87,60.93
419,12302.7,0.0500,-63.71,67.21
420,12445.1,0.0500,-62.97,63.78
421,12589.3,0.0500,-64.03,63.02
422,12735.0,0.0500,-64.76,59.42
423,12882.5,0.0500,-62.11,63.61
424,13031.7,0.0500,-62.88,64.35
425,13182.6,0.0500,-62.40,71.85
426,13335.2,0.0500,-62.86,63.98
427,13489.6,0.0500,-64.49,68.78
428,13645.8,0.0500,-63.07,66.57
429,13803.8,0.0500,-62.13,64.42
430,13963.7,0.0500,-61.92,55.35
431,14125.4,0.0500,-63.39,70.95
432,14288.9,0.0500,-61.52,66.55
433,14454.4,0.0500,-62.61,69.42
434,14621.8,0.0500,-61.25,69.34
435,14791.1,0.0500,-61.74,71.93
436,14962.4,0.0500,-63.79,83.56
437,15135.6,0.0500,-62.22,68.14
438,15310.9,0.0500,-62.75,63.93
439,15488.2,0.0500,-61.40,61.32
440,15667.5,0.0500,-61.84,67.46
441,15848.9,0.0500,-60.81,66.74
442,16032.5,0.0500,-61.64,64.75
443,16218.1,0.0500,-60.77,71.37
444,16405.9,0.0500,-60.90,69.44
445,16595.9,0.0500,-61.12,64.44
446,16788.0,0.0500,-60.28,62.23
447,16982.4,0.0500,-61.45,65.84
448,17179.1,0.0500,-60.60,67.55
449,17378.0,0.0500,-61.33,71.70
450,17579.2,0.0500,-60.79,69.82
451,17782.8,0.0500,-60.69,74.41
452,17988.7,0.0500,-60.38,72.61
453,18197.0,0.0500,-60.68,72.63
454,18407.7,0.0500,-59.87,72.45
455,18620.9,0.0500,-60.48,75.32
456,18836.5,0.0500,-60.29,68.80
457,19054.6,0.0500,-61.01,73.91
458,19275.2,0.0500,-59.97,71.79
459,19498.4,0.0500,-60.07,76.82
460,19724.2,0.0500,-60.62,71.97
461,19952.6,0.0500,-59.69,77.16
462,20183.7,0.0500,-59.77,69.65
463,20417.4,0.0500,-59.76,69.26
464,20653.8,0.0500,-59.34,71.13
465,20893.0,0.0500,-59.18,68.08
466,21134.9,0.0500,-59.21,67.90
467,21379.6,0.0500,-58.87,74.24
468,21627.2,0.0500,-59.55,72.88
469,21877.6,0.0500,-59.31,72.36
470,22130.9,0.0500,-58.85,70.95
471,22387.2,0.0500,-59.20,72.28
472,22646.4,0.0500,-59.04,73.90
473,22908.7,0.0500,-59.07,71.99
474,23173.9,0.0500,-59.16,77.45
475,23442.3,0.0500,-58.94,76.06
476,23713.7,0.0500,-58.35,74.46
477,23988.3,0.0500,-58.33,73.13
478,24266.1,0.0500,-58.64,75.70
479,24547.1,0.0500,-57.85,72.93
480,24831.3,0.0500,-57.85,74.47
481,25118.9,0.0500,-58.28,75.91
482,25409.7,0.0500,-57.71,75.37
483,25704.0,0.0500,-57.52,74.62
484,26001.6,0.0500,-58.27,74.59
485,26302.7,0.0500,-57.98,76.26
486,26607.3,0.0500,-57.55,75.75
487,26915.3,0.0500,-57.46,75.23
488,27227.0,0.0500,-57.29,76.23
489,27542.3,0.0500,-57.27,76.91
490,27861.2,0.0500,-56.97,74.85
491,28183.8,0.0500,-57.36,81.34
492,28510.2,0.0500,-57.16,75.91
493,28840.3,0.0500,-56.97,76.45
494,29174.3,0.0500,-56.74,72.64
495,29512.1,0.0500,-56.44,78.20
496,29853.8,0.0500,-56.39,78.03
497,30199.5,0.0500,-56.46,76.72
498,30549.2,0.0500,-56.14,79.74
499,30903.0,0.0500,-56.17,76.85
500,31260.8,0.0500,-56.47,78.91
501,31622.8,0.0500,-55.24,75.61
502,31989.0,0.0500,-56.31,74.76
503,32359.4,0.0500,-55.85,76.78
504,32734.1,0.0500,-56.17,80.49
505,33113.1,0.0500,-56.27,74.79
506,33496.5,0.0500,-55.82,79.73
507,33884.4,0.0500,-56.07,76.87
508,34276.8,0.0500,-55.53,77.51
509,34673.7,0.0500,-55.44,80.93
510,35075.2,0.0500,-55.09,78.07
511,35481.3,0.0500,-55.30,80.19
512,35892.2,0.0500,-55.08,76.60
513,36307.8,0.0500,-55.32,77.16
514,36728.2,0.0500,-55.11,77.61
515,37153.5,0.0500,-54.92,78.34
516,37583.7,0.0500,-54.89,80.30
517,38018.9,0.0500,-54.64,79.75
518,38459.2,0.0500,-54.63,77.69
519,38904.5,0.0500,-54.74,78.82
520,39355.0,0.0500,-54.23,79.23
521,39810.7,0.0500,-54.21,80.34
522,40271.7,0.0500,-53.95,81.01
523,40738.0,0.0500,-54.11,79.43
524,41209.8,0.0500,-53.75,78.33
525,41686.9,0.0500,-53.49,81.05
526,42169.7,0.0500,-53.60,79.01
527,42658.0,0.0500,-53.75,80.80
528,43151.9,0.0500,-53.62,82.01
529,43651.6,0.0500,-53.68,78.33
530,44157.0,0.0500,-53.26,79.55
531,44668.4,0.0500,-53.18,80.34
532,45185.6,0.0500,-53.00,81.75
533,45708.8,0.0500,-53.21,80.75
534,46238.1,0.0500,-52.88,79.93
535,46773.5,0.0500,-52.98,82.62
536,47315.1,0.0500,-52.73,81.30
537,47863.0,0.0500,-52.64,81.11
538,48417.2,0.0500,-52.99,82.82
539,48977.9,0.0500,-52.35,80.87
540,49545.0,0.0500,-51.89,79.41
541,50118.7,0.0500,-52.12,79.10
542,50699.1,0.0500,-51.98,81.07
543,51286.1,0.0500,-51.64,80.74
544,51880.0,0.0500,-51.45,81.13
545,52480.7,0.0500,-52.22,80.82
546,53088.4,0.0500,-51.28,81.17
547,53703.2,0.0500,-51.65,76.28
548,54325.0,0.0500,-51.21,78.79
549,54954.1,0.0500,-51.42,78.68
550,55590.4,0.0500,-51.04,84.09
551,56234.1,0.0500,-51.58,79.30
552,56885.3,0.0500,-50.92,84.12
553,57544.0,0.0500,-50.95,79.40
554,58210.3,0.0500,-51.21,79.32
555,58884.4,0.0500,-50.86,78.75
556,59566.2,0.0500,-50.82,77.31
557,60256.0,0.0500,-50.38,78.34
558,60953.7,0.0500,-50.94,79.28
559,61659.5,0.0500,-50.55,81.30
560,62373.5,0.0500,-51.01,81.09
561,63095.7,0.0500,-50.31,77.60
562,63826.3,0.0500,-50.25,81.24
563,64565.4,0.0500,-50.29,83.69
564,65313.1,0.0500,-49.94,76.76
565,66069.3,0.0500,-49.82,80.23
566,66834.4,0.0500,-50.16,79.47
567,67608.3,0.0500,-50.52,78.66
568,68391.2,0.0500,-49.59,82.38
569,69183.1,0.0500,-49.74,82.56
570,69984.2,0.0500,-49.40,80.03
571,70794.6,0.0500,-49.33,79.79
572,71614.3,0.0500,-49.75,81.06
573,72443.6,0.0500,-49.08,76.78
574,73282.5,0.0500,-49.12,76.92
575,74131.0,0.0500,-49.17,78.98
576,74989.4,0.0500,-48.82,80.43
577,75857.8,0.0500,-48.90,83.43
578,76736.1,0.0500,-48.92,80.32
579,77624.7,0.0500,-48.69,79.20
580,78523.6,0.0500,-48.40,81.57
581,79432.8,0.0500,-48.53,83.18
582,80352.6,0.0500,-48.59,82.15
583,81283.1,0.0500,-47.92,79.75
584,82224.3,0.0500,-48.28,79.77
585,83176.4,0.0500,-48.05,79.95
586,84139.5,0.0500,-48.10,78.63
587,85113.8,0.0500,-47.64,79.42
588,86099.4,0.0500,-47.62,80.74
589,87096.4,0.0500,-47.64,84.40
590,88104.9,0.0500,-47.74,80.34
591,89125.1,0.0500,-47.58,82.93
592,90157.1,0.0500,-47.57,80.99
593,91201.1,0.0500,-47.46,81.12
594,92257.1,0.0500,-47.20,81.81
595,93325.4,0.0500,-47.43,82.11
596,94406.1,0.0500,-46.96,82.29
597,95499.3,0.0500,-46.75,81.29
598,96605.1,0.0500,-46.88,82.12
599,97723.7,0.0500,-46.53,80.04
600,98855.3,0.0500,-46.75,79.38
601,100000.0,0.0500,-46.62,80.60
602,101157.9,0.0500,-46.18,79.70
603,102329.3,0.0500,-46.63,83.35
604,103514.2,0.0500,-46.43,81.21
605,104712.9,0.0500,-46.65,81.55
606,105925.4,0.0500,-46.32,83.47
607,107151.9,0.0500,-46.05,80.72
608,108392.7,0.0500,-45.66,80.55
609,109647.8,0.0500,-45.90,81.08
610,110917.5,0.0500,-45.79,82.72
611,112201.8,0.0500,-46.01,80.42
612,113501.1,0.0500,-45.59,82.49
613,114815.4,0.0500,-45.61,80.26
614,116144.9,0.0500,-45.29,82.88
615,117489.8,0.0500,-45.38,83.48
616,118850.2,0.0500,-45.27,81.89
617,120226.4,0.0500,-45.16,81.10
618,121618.6,0.0500,-45.19,81.53
619,123026.9,0.0500,-44.92,81.51
620,124451.5,0.0500,-44.80,83.98
621,125892.5,0.0500,-44.54,83.94
622,127350.3,0.0500,-44.97,81.22
623,128825.0,0.0500,-44.57,82.85
624,130316.7,0.0500,-44.54,85.49
625,131825.7,0.0500,-44.00,81.28
626,133352.1,0.0500,-44.26,81.67
627,134896.3,0.0500,-44.08,82.35
628,136458.3,0.0500,-43.92,82.10
629,138038.4,0.0500,-44.23,83.26
630,139636.8,0.0500,-43.84,79.86
631,141253.8,0.0500,-43.88,81.45
632,142889.4,0.0500,-43.75,82.20
633,144544.0,0.0500,-43.16,83.27
634,146217.7,0.0500,-43.44,80.48
635,147910.8,0.0500,-43.35,76.82
636,149623.6,0.0500,-43.28,83.42
637,151356.1,0.0500,-43.12,82.99
638,153108.7,0.0500,-43.19,81.88
639,154881.7,0.0500,-42.47,80.05
640,156675.1,0.0500,-42.99,78.99
641,158489.3,0.0500,-42.13,83.52
642,160324.5,0.0500,-42.66,81.86
643,162181.0,0.0500,-42.29,82.34
644,164059.0,0.0500,-42.79,77.18
645,165958.7,0.0500,-42.31,81.94
646,167880.4,0.0500,-41.66,80.93
